 ****** HSPICE -- D-2010.03-SP1 32-BIT (May 26 2010) winnt ******               
  Copyright (C) 2010 Synopsys, Inc. All Rights Reserved.                        
  Unpublished-rights reserved under US copyright laws.
  This program is protected by law and is subject to the 
  terms and conditions of the license agreement from Synopsys.
  Use of this program is your acceptance to be bound by the 
  license agreement. HSPICE is the trademark of Synopsys, Inc.
  Input File: d:\synopsys\hspice\trytry\amplifier.sp                            
  lic:  
  lic: FLEXlm: v8.5b 
  lic: USER:   zrc                  HOSTNAME: LAPTOP-O4SR7NUK 
  lic: HOSTID: "005056c00001 00ffd46088fe a87eea1f533c 005056c00008 a87eea1f5338
  
  lic: Using FLEXlm license file: 
  lic: C:\flexlm\hspice.dat 
  lic: Checkout 1 hspice 
  lic: License/Maintenance for hspice will expire on 31-dec-2020/2007.9 
  lic: NODE LOCKED license on hostid "005056c00001 00ffd46088fe a87eea1f533c 005
 0
  lic:   
 Init: read install configuration file: D:\synopsys\Hspice_D-2010.03-SP1\meta.cfg
 scientific notation:
 a=10**-18  f=10**-15  p=10**-12  n=10**-9  u=10**-6
 m=10**-3   k=10**3    x=10**6    g=10**9 


 circuit parameter definitions
  parameter          =  value 





 constants  - tnom         kt           vt           gapsi        ni
            298.15000    4.1163e-21    25.69184m     1.11562    1.2565e+16 
1****** HSPICE -- D-2010.03-SP1 32-BIT (May 26 2010) winnt ******               
 ******  
 * amplifier

  ******  mos   model parameters tnom=  25.000 temp=  25.000 *****
 ***************************************************************************
 *** common model parameters  model name:   0:modp     model type:pmos   ***
 ***************************************************************************
     names  values   units     names  values   units     names  values   units
     -----  ------   -----     -----  ------   -----     -----  ------   -----

   1*** geometry parameters ***
       ld=   0.    meters      lmlt=   1.00                wd=   0.    meters 
     wmlt=   1.00                xl=   0.    meters        xw=   0.    meters 
     lref=   0.    meters      wref=   0.    meters      lref=   0.    meters 
     wref=   0.    meters     xlref=   0.    meters     xwref=   0.    meters 
     lmin=   0.    meters      wmin=   0.    meters      lmax=   0.    meters 
     wmax=   0.    meters 

   2*** threshold voltage parameters ***
      vto=-500.00m volts        nss=   0.    1/cm**2      tpg=   1.00         
      phi= 579.84m volts      gamma=   6.07  v**0.5      bulk=  gnd           
    ngate=   0.    cm**3       nsub= 1.0e+15 1/cm**3   delvto=   0.    volts  

   3*** gate overlap capacitance parameters ***
     cgbo=   0.    f/meter     cgdo=   0.    f/meter     cgso=   0.    f/meter
     meto=   0.    meters 

   4*** gate capacitance parameters ***
    capop=   2.00               cf1=   0.    volts        cf2= 100.00m volts  
      cf3=   1.00  volts        cf4=  50.00               cf5= 666.67m        
      cf6= 500.00               xqc= 500.00m              tox=   1.15u meters 
      cox=  30.00u f/m**2 

   5*** diffusion parasitic parameters ***
      acm=   0.                  is=  10.00f amps          js=   0.    a/m**2 
      jsw=   0.    amp/m        nds=   1.00               cbd=   0.    farad  
      cbs=   0.    farad         cj= 101.85u f/m**2      cjsw=   0.    f/m    
   cjgate=   0.    f/m           mj= 500.00m             mjsw= 330.00m        
       pb= 800.00m volts        php= 800.00m volts         tt=   0.    secs   
     hdif=   0.    meters      ldif=   0.    meters        rd=   0.    ohms   
       rs=   0.    ohms         rsh=   0.    ohms/sq       fc=   0.           
    alpha=   0.                 vcr=   0.    volts      iirat=   0.           
      rdc=   0.    ohms         rsc=   0.    ohms           n=   1.00         
     vnds=  -1.00  volts  

   6*** temperature effect parameters ***
     tlev=   0.               tlevc=   0.                  eg=   1.11  ev     
     gap1= 702.00u ev/deg      gap2=   1.11k deg          xti=   0.           
      bex=  -1.50               tcv=   0.    v/deg k      trd=   0.    /deg   
      trs=   0.    /deg         cta=   0.    /deg         ctp=   0.    /deg   

   7*** noise parameters ***
       kf=   0.                  af=   1.00              nlev=   2.00         
   gdsnoi=   1.00         

   ***  level  1  model parameters  ***

   lambda=  50.00m /v            kp=   1.50u a/v**2 
 ***************************************************************************
 *** common model parameters  model name:   0:modn     model type:nmos   ***
 ***************************************************************************
     names  values   units     names  values   units     names  values   units
     -----  ------   -----     -----  ------   -----     -----  ------   -----

   1*** geometry parameters ***
       ld=   0.    meters      lmlt=   1.00                wd=   0.    meters 
     wmlt=   1.00                xl=   0.    meters        xw=   0.    meters 
     lref=   0.    meters      wref=   0.    meters      lref=   0.    meters 
     wref=   0.    meters     xlref=   0.    meters     xwref=   0.    meters 
     lmin=   0.    meters      wmin=   0.    meters      lmax=   0.    meters 
     wmax=   0.    meters 

   2*** threshold voltage parameters ***
      vto= 500.00m volts        nss=   0.    1/cm**2      tpg=   1.00         
      phi= 270.73m volts      gamma= 300.00m v**0.5      bulk=  gnd           
    ngate=   0.    cm**3       nsub= 2.4e+12 1/cm**3   delvto=   0.    volts  

   3*** gate overlap capacitance parameters ***
     cgbo=   0.    f/meter     cgdo=   0.    f/meter     cgso=   0.    f/meter
     meto=   0.    meters 

   4*** gate capacitance parameters ***
    capop=   2.00               cf1=   0.    volts        cf2= 100.00m volts  
      cf3=   1.00  volts        cf4=  50.00               cf5= 666.67m        
      cf6= 500.00               xqc= 500.00m              tox=   1.15u meters 
      cox=  30.00u f/m**2 

   5*** diffusion parasitic parameters ***
      acm=   0.                  is=  10.00f amps          js=   0.    a/m**2 
      jsw=   0.    amp/m        nds=   1.00               cbd=   0.    farad  
      cbs=   0.    farad         cj=   5.03u f/m**2      cjsw=   0.    f/m    
   cjgate=   0.    f/m           mj= 500.00m             mjsw= 330.00m        
       pb= 800.00m volts        php= 800.00m volts         tt=   0.    secs   
     hdif=   0.    meters      ldif=   0.    meters        rd=   0.    ohms   
       rs=   0.    ohms         rsh=   0.    ohms/sq       fc=   0.           
    alpha=   0.                 vcr=   0.    volts      iirat=   0.           
      rdc=   0.    ohms         rsc=   0.    ohms           n=   1.00         
     vnds=  -1.00  volts  

   6*** temperature effect parameters ***
     tlev=   0.               tlevc=   0.                  eg=   1.11  ev     
     gap1= 702.00u ev/deg      gap2=   1.11k deg          xti=   0.           
      bex=  -1.50               tcv=   0.    v/deg k      trd=   0.    /deg   
      trs=   0.    /deg         cta=   0.    /deg         ctp=   0.    /deg   

   7*** noise parameters ***
       kf=   0.                  af=   1.00              nlev=   2.00         
   gdsnoi=   1.00         

   ***  level  1  model parameters  ***

   lambda=  50.00m /v            kp=   4.50u a/v**2 
1****** HSPICE -- D-2010.03-SP1 32-BIT (May 26 2010) winnt ******               
 ******  
 * amplifier

  ******  circuit element summary tnom=  25.000 temp=  25.000 *****


 **** resistors

  
 
                                       
 element name        0:rin     0:rout  
 node1               0:10      0:16    
 node2               0:11      0:0     
 model                                 
 res eff           100.0000    1.0000k 
 tc1                 0.        0.      
 tc2                 0.        0.      
 scale               1.0000    1.0000  
 m                   1.0000    1.0000  
 ac                100.0000    1.0000k 
 temp               25.0000   25.0000  
 l                   0.        0.      
 w                   0.        0.      
 cap                 0.        0.      
 noise            1.000e+00 1.000e+00  


 **** independent sources

     name         node1        node2      dc volt    ac mag    ac phase    type
  vdd  9                 0                    3.0000     0.         0.      dc   
  vin  10                0                    1.0000     0.         0.      dc   
  vb1  12                0                    1.0000     0.         0.      dc   


 **** mosfets
  
 
                                                              
 element name        0:m1       0:m2       0:m3       0:m4    
 drain               0:13       0:16       0:16       0:14    
 gate                0:13       0:12       0:12       0:11    
 source              0:9        0:13       0:14       0:0     
 bulk                0:9        0:13       0:0        0:0     
 model               0:modp     0:modp     0:modn     0:modn  
 w eff              30.0000u   60.0000u   20.0000u   10.0000u 
 l eff             350.0000n  350.0000n  350.0000n  350.0000n 
 rd eff              0.         0.         0.         0.      
 rs eff              0.         0.         0.         0.      
 cdsat              10.0000f   10.0000f   10.0000f   10.0000f 
 cssat              10.0000f   10.0000f   10.0000f   10.0000f 
 capbd               0.         0.         0.         0.      
 capbs               0.         0.         0.         0.      
 temp               25.0000    25.0000    25.0000    25.0000  
 aic                                                          
  
 
1****** HSPICE -- D-2010.03-SP1 32-BIT (May 26 2010) winnt ******               
 ******  
 * amplifier

  ******  element node table
                                                                                      
 0                rout             vdd              vin              vb1              
                  m3:b             m4:s             m4:b                              
 9                vdd              m1:s             m1:b                              
 10               rin              vin                                                
 11               rin              m4:g                                               
 12               vb1              m2:g             m3:g                              
 13               m1:d             m1:g             m2:s             m2:b             
 14               m3:s             m4:d                                               
 16               rout             m2:d             m3:d                              
 *****************************************************************
 ******  option summary
 ******
 runlvl  = 3         bypass  = 2         
 ******  
 * amplifier

  ******  dc transfer curves tnom=  25.000 temp=  25.000 *****
x

        volt    current      current    
                   rout          m3     
    0.           23.6196u     95.1870f  
   10.00000m     23.6196u     95.1870f  
   20.00000m     23.6196u     95.1870f  
   30.00000m     23.6196u     95.1870f  
   40.00000m     23.6196u     95.1870f  
   50.00000m     23.6196u     95.1870f  
   60.00000m     23.6196u     95.1870f  
   70.00000m     23.6196u     95.1870f  
   80.00000m     23.6196u     95.1870f  
   90.00000m     23.6196u     95.1870f  
  100.00000m     23.6196u     95.1870f  
  110.00000m     23.6196u     95.1870f  
  120.00000m     23.6196u     95.1870f  
  130.00000m     23.6196u     95.1870f  
  140.00000m     23.6196u     95.1870f  
  150.00000m     23.6196u     95.1870f  
  160.00000m     23.6196u     95.1870f  
  170.00000m     23.6196u     95.1870f  
  180.00000m     23.6196u     95.1870f  
  190.00000m     23.6196u     95.1870f  
  200.00000m     23.6196u     95.1870f  
  210.00000m     23.6196u     95.1870f  
  220.00000m     23.6196u     95.1870f  
  230.00000m     23.6196u     95.1870f  
  240.00000m     23.6196u     95.1870f  
  250.00000m     23.6196u     95.1870f  
  260.00000m     23.6196u     95.1870f  
  270.00000m     23.6196u     95.1870f  
  280.00000m     23.6196u     95.1870f  
  290.00000m     23.6196u     95.1870f  
  300.00000m     23.6196u     95.1870f  
  310.00000m     23.6196u     95.1870f  
  320.00000m     23.6196u     95.1870f  
  330.00000m     23.6196u     95.1870f  
  340.00000m     23.6196u     95.1870f  
  350.00000m     23.6196u     95.1870f  
  360.00000m     23.6196u     95.1870f  
  370.00000m     23.6196u     95.1870f  
  380.00000m     23.6196u     95.1870f  
  390.00000m     23.6196u     95.1870f  
  400.00000m     23.6196u     95.1870f  
  410.00000m     23.6196u     95.1870f  
  420.00000m     23.6196u     95.1870f  
  430.00000m     23.6196u     95.1870f  
  440.00000m     23.6196u     95.1870f  
  450.00000m     23.6196u     95.1870f  
  460.00000m     23.6196u     95.1870f  
  470.00000m     23.6196u     95.1870f  
  480.00000m     23.6196u     95.1870f  
  490.00000m     23.6196u     95.1870f  
  500.00000m     23.6196u     95.1870f  
  510.00000m     23.6132u     95.1870f  
  520.00000m     23.5939u     19.3113n  
  530.00000m     23.5647u     51.4996n  
  540.00000m     23.5356u     84.3894n  
  550.00000m     23.5071u    112.8494n  
  560.00000m     23.4793u    140.6530n  
  570.00000m     23.4522u    167.8234n  
  580.00000m     23.4256u    194.3832n  
  590.00000m     23.3996u    220.3536n  
  600.00000m     23.3742u    245.7548n  
  610.00000m     23.3494u    270.6061n  
  620.00000m     23.3251u    294.9259n  
  630.00000m     23.3013u    318.7318n  
  640.00000m     23.2780u    342.0406n  
  650.00000m     23.2551u    364.8682n  
  660.00000m     23.2328u    387.2300n  
  670.00000m     23.2109u    409.1406n  
  680.00000m     23.1894u    430.6140n  
  690.00000m     23.1683u    451.6637n  
  700.00000m     23.1477u    472.3024n  
  710.00000m     23.1275u    492.5427n  
  720.00000m     23.1076u    512.3961n  
  730.00000m     23.0881u    531.8742n  
  740.00000m     23.0690u    550.9878n  
  750.00000m     23.0503u    569.7473n  
  760.00000m     23.0319u    588.1629n  
  770.00000m     23.0138u    606.2441n  
  780.00000m     22.9960u    624.0003n  
  790.00000m     22.9786u    641.4404n  
  800.00000m     22.9615u    658.5731n  
  810.00000m     22.9446u    675.4065n  
  820.00000m     22.9281u    691.9488n  
  830.00000m     22.9118u    708.2076n  
  840.00000m     22.8959u    724.1903n  
  850.00000m     22.8802u    739.9041n  
  860.00000m     22.8647u    755.3559n  
  870.00000m     22.8495u    770.5524n  
  880.00000m     22.8346u    785.4999n  
  890.00000m     22.8199u    800.2048n  
  900.00000m     22.8054u    814.6730n  
  910.00000m     22.7912u    828.9103n  
  920.00000m     22.7772u    842.9224n  
  930.00000m     22.7634u    856.7147n  
  940.00000m     22.7498u    870.2924n  
  950.00000m     22.7364u    883.6605n  
  960.00000m     22.7233u    896.8241n  
  970.00000m     22.7103u    909.7879n  
  980.00000m     22.6975u    922.5565n  
  990.00000m     22.6850u    935.1344n  
    1.00000      22.6726u    947.5259n  
    1.01000      22.6604u    959.7351n  
    1.02000      22.6483u    971.7663n  
    1.03000      22.6365u    983.6233n  
    1.04000      22.6248u    995.3099n  
    1.05000      22.6133u      1.0068u  
    1.06000      22.6019u      1.0182u  
    1.07000      22.5907u      1.0294u  
    1.08000      22.5797u      1.0404u  
    1.09000      22.5688u      1.0513u  
    1.10000      22.5581u      1.0621u  
    1.11000      22.5475u      1.0726u  
    1.12000      22.5371u      1.0831u  
    1.13000      22.5267u      1.0934u  
    1.14000      22.5166u      1.1036u  
    1.15000      22.5065u      1.1136u  
    1.16000      22.4966u      1.1235u  
    1.17000      22.4869u      1.1333u  
    1.18000      22.4772u      1.1429u  
    1.19000      22.4677u      1.1525u  
    1.20000      22.4583u      1.1619u  
    1.21000      22.4490u      1.1711u  
    1.22000      22.4399u      1.1803u  
    1.23000      22.4308u      1.1894u  
    1.24000      22.4219u      1.1983u  
    1.25000      22.4131u      1.2071u  
    1.26000      22.4044u      1.2158u  
    1.27000      22.3958u      1.2244u  
    1.28000      22.3873u      1.2329u  
    1.29000      22.3789u      1.2413u  
    1.30000      22.3706u      1.2496u  
    1.31000      22.3624u      1.2578u  
    1.32000      22.3543u      1.2660u  
    1.33000      22.3462u      1.2740u  
    1.34000      22.3383u      1.2819u  
    1.35000      22.3305u      1.2897u  
    1.36000      22.3228u      1.2974u  
    1.37000      22.3151u      1.3051u  
    1.38000      22.3076u      1.3126u  
    1.39000      22.3001u      1.3201u  
    1.40000      22.2927u      1.3275u  
    1.41000      22.2854u      1.3348u  
    1.42000      22.2782u      1.3420u  
    1.43000      22.2711u      1.3492u  
    1.44000      22.2640u      1.3562u  
    1.45000      22.2570u      1.3632u  
    1.46000      22.2501u      1.3701u  
    1.47000      22.2433u      1.3769u  
    1.48000      22.2365u      1.3837u  
    1.49000      22.2299u      1.3904u  
    1.50000      22.2232u      1.3970u  
    1.51000      22.2167u      1.4035u  
    1.52000      22.2102u      1.4100u  
    1.53000      22.2038u      1.4164u  
    1.54000      22.1975u      1.4228u  
    1.55000      22.1912u      1.4290u  
    1.56000      22.1850u      1.4353u  
    1.57000      22.1789u      1.4414u  
    1.58000      22.1728u      1.4475u  
    1.59000      22.1668u      1.4535u  
    1.60000      22.1608u      1.4595u  
    1.61000      22.1549u      1.4654u  
    1.62000      22.1491u      1.4712u  
    1.63000      22.1433u      1.4770u  
    1.64000      22.1376u      1.4827u  
    1.65000      22.1319u      1.4884u  
    1.66000      22.1263u      1.4940u  
    1.67000      22.1207u      1.4996u  
    1.68000      22.1152u      1.5051u  
    1.69000      22.1098u      1.5105u  
    1.70000      22.1044u      1.5159u  
    1.71000      22.0990u      1.5213u  
    1.72000      22.0937u      1.5266u  
    1.73000      22.0885u      1.5318u  
    1.74000      22.0833u      1.5370u  
    1.75000      22.0781u      1.5422u  
    1.76000      22.0730u      1.5473u  
    1.77000      22.0680u      1.5523u  
    1.78000      22.0630u      1.5573u  
    1.79000      22.0580u      1.5623u  
    1.80000      22.0531u      1.5672u  
    1.81000      22.0483u      1.5721u  
    1.82000      22.0434u      1.5769u  
    1.83000      22.0386u      1.5817u  
    1.84000      22.0339u      1.5864u  
    1.85000      22.0292u      1.5911u  
    1.86000      22.0246u      1.5958u  
    1.87000      22.0200u      1.6004u  
    1.88000      22.0154u      1.6049u  
    1.89000      22.0109u      1.6095u  
    1.90000      22.0064u      1.6140u  
    1.91000      22.0019u      1.6184u  
    1.92000      21.9975u      1.6228u  
    1.93000      21.9931u      1.6272u  
    1.94000      21.9888u      1.6316u  
    1.95000      21.9845u      1.6359u  
    1.96000      21.9802u      1.6401u  
    1.97000      21.9760u      1.6443u  
    1.98000      21.9718u      1.6485u  
    1.99000      21.9676u      1.6527u  
    2.00000      21.9635u      1.6568u  
    2.01000      21.9594u      1.6609u  
    2.02000      21.9554u      1.6650u  
    2.03000      21.9514u      1.6690u  
    2.04000      21.9474u      1.6730u  
    2.05000      21.9434u      1.6769u  
