 ****** HSPICE -- D-2010.03-SP1 32-BIT (May 26 2010) winnt ******               
  Copyright (C) 2010 Synopsys, Inc. All Rights Reserved.                        
  Unpublished-rights reserved under US copyright laws.
  This program is protected by law and is subject to the 
  terms and conditions of the license agreement from Synopsys.
  Use of this program is your acceptance to be bound by the 
  license agreement. HSPICE is the trademark of Synopsys, Inc.
  Input File: d:\synopsys\hspice\trytry\bjtamplifiertrans.sp                    
  lic:  
  lic: FLEXlm: v8.5b 
  lic: USER:   zrc                  HOSTNAME: LAPTOP-O4SR7NUK 
  lic: HOSTID: "005056c00001 00ffd46088fe a87eea1f533c 005056c00008 a87eea1f5338
  
  lic: Using FLEXlm license file: 
  lic: C:\flexlm\hspice.dat 
  lic: Checkout 1 hspice 
  lic: License/Maintenance for hspice will expire on 31-dec-2020/2007.9 
  lic: NODE LOCKED license on hostid "005056c00001 00ffd46088fe a87eea1f533c 005
 0
  lic:   
 Init: read install configuration file: D:\synopsys\Hspice_D-2010.03-SP1\meta.cfg
 **warning** (d:\synopsys\hspice\trytry\bjtamplifiertrans.sp:2) nonstandard number 1e-9s is interpreted as 1e-009
 **warning** (d:\synopsys\hspice\trytry\bjtamplifiertrans.sp:2) nonstandard number 1e-6s is interpreted as 1e-006
 scientific notation:
 a=10**-18  f=10**-15  p=10**-12  n=10**-9  u=10**-6
 m=10**-3   k=10**3    x=10**6    g=10**9 


 circuit parameter definitions
  parameter          =  value 





 constants  - tnom         kt           vt           gapsi        ni
            298.15000    4.1163e-21    25.69184m     1.11562    1.2565e+16 
1****** HSPICE -- D-2010.03-SP1 32-BIT (May 26 2010) winnt ******               
 ******  
 * bjt amplifier circuit

  ******  bjt   model parameters tnom=  25.000 temp=  25.000 *****

 ************************************************************************
 *** bjt model parameters   model name:   0:mod1     model type:npn   ***
 ************************************************************************

     names  values   units     names  values   units     names  values   units
     -----  ------   -----     -----  ------   -----     -----  ------   -----

   1*** basic dc parameters ***
    level=   1.00                bf= 100.00                br=   1.00         
      brs=   0.                bulk=  gnd                  is= 2.0e-16 amps   
      iss=   0.    amps          nf=   1.00                nr=   1.00         
       ns=   1.00               ibe=   0.    amps         ibc=   0.    amps   
     subs=   1.00             expli=   0.    amps   

   2*** low current beta degradation effect parameters ***
      isc=   0.    amps         ise=   0.    amps          nc=   2.00         
       ne=   1.50         

   3*** base width modulation parameters ***
      vaf=   0.    volts        var=   0.    volts  

   4*** high current beta degradation effect parameters ***
      ikf=   0.    amps         nkf= 500.00m              ikr=   0.    amps   

   5*** parasitic resistor parameters ***
      irb=   0.    amps          rb=   0.    ohms         rbm=   0.    ohms   
       re=   0.    ohms          rc=   0.    ohms         rcc=   0.    ohms   
       vo=   0.    volts      gamma=   0.           

   6*** junction capacitor parameters ***
     cbcp=   0.    farad       cbep=   0.    farad       ccsp=   0.    farad  
      cjc=   5.00p farad        cje=  10.00p farad        cjs=   0.    farad  
       fc= 500.00m              mjc= 330.00m              mje= 330.00m        
      mjs= 500.00m              vjc= 750.00m volts        vje= 750.00m volts  
      vjs= 750.00m volts       xcjc=   1.00               qco=   0.    coul   

   7*** transit time parameters ***
      itf=   0.    amps         ptf=   0.    deg k         tf=   0.    secs   
       tr=   0.    secs         vtf=   0.                 xtf=   0.           

   8*** temperature compensation parameters ***
     tlev=   0.               tlevc=   0.                tre1=   0.    /deg   
     tre2=   0.    /deg2       trb1=   0.    /deg        trc1=   0.    /deg   
     trb2=   0.    /deg2       trm1=   0.    /deg         xtb=   0.           
     trm2=   0.    /deg2        xti=   3.00               cte=   0.    /deg   
      ctc=   0.    /deg         cts=   0.    /deg        trc2=   0.    /deg2  
     tref=  25.00   deg c       bex=   2.42              bexv=   1.90         

   9*** noise parameters ***
       kf=   0.                  af=   1.00         
  **info** (d:\synopsys\hspice\trytry\bjtamplifiertrans.sp:8) DC voltage reset to initial transient source value              in source        0:vbb                 new dc=  0.1500D+01
1****** HSPICE -- D-2010.03-SP1 32-BIT (May 26 2010) winnt ******               
 ******  
 * bjt amplifier circuit

  ******  circuit element summary tnom=  25.000 temp=  25.000 *****


 **** resistors

  
 
                                                              
 element name        0:r1       0:r2       0:r3       0:r4    
 node1               0:103      0:101      0:105      0:101   
 node2               0:0        0:104      0:0        0:106   
 model                                                        
 res eff            10.0000k   27.0000k    2.0000k   10.0000k 
 tc1                 0.         0.         0.         0.      
 tc2                 0.         0.         0.         0.      
 scale               1.0000     1.0000     1.0000     1.0000  
 m                   1.0000     1.0000     1.0000     1.0000  
 ac                 10.0000k   27.0000k    2.0000k   10.0000k 
 temp               25.0000    25.0000    25.0000    25.0000  
 l                   0.         0.         0.         0.      
 w                   0.         0.         0.         0.      
 cap                 0.         0.         0.         0.      
 noise            1.000e+00  1.000e+00  1.000e+00  1.000e+00  
  
 
                                                              
 element name        0:r5       0:r6       0:rb1      0:rb2   
 node1               0:107      0:101      0:102      0:103   
 node2               0:0        0:108      0:109      0:110   
 model                                                        
 res eff            10.0000k   10.0000k    1.9000x  190.0000k 
 tc1                 0.         0.         0.         0.      
 tc2                 0.         0.         0.         0.      
 scale               1.0000     1.0000     1.0000     1.0000  
 m                   1.0000     1.0000     1.0000     1.0000  
 ac                 10.0000k   10.0000k    1.9000x  190.0000k 
 temp               25.0000    25.0000    25.0000    25.0000  
 l                   0.         0.         0.         0.      
 w                   0.         0.         0.         0.      
 cap                 0.         0.         0.         0.      
 noise            1.000e+00  1.000e+00  1.000e+00  1.000e+00  
  
 
                             
 element name        0:rb3   
 node1               0:104   
 node2               0:111   
 model                       
 res eff             3.7000x 
 tc1                 0.      
 tc2                 0.      
 scale               1.0000  
 m                   1.0000  
 ac                  3.7000x 
 temp               25.0000  
 l                   0.      
 w                   0.      
 cap                 0.      
 noise            1.000e+00  


 **** independent sources

     name         node1        node2      dc volt    ac mag    ac phase    type
  vcc  101               0                    9.0000     0.         0.      dc   
  vbb  102               0                    1.5000     0.         0.      sin  
             offset.......     1.5000 
             amplitude....   500.0000m
             frequency....    10.0000x
             delay........     0.     
             theta........     0.     
             phase........     0.     



 **** bipolar junction transistors

  
 
                                                
 element name        0:q1      0:q2      0:q3   
 collector           0:108     0:104     0:106  
 base                0:109     0:110     0:111  
 emitter             0:103     0:105     0:107  
 bulk                0:0       0:0       0:0    
 model               0:mod1    0:mod1    0:mod1 
 area                1.0000    1.0000    1.0000 
 
1****** HSPICE -- D-2010.03-SP1 32-BIT (May 26 2010) winnt ******               
 ******  
 * bjt amplifier circuit

  ******  element node table
                                                                                      
 0                r1               r3               r5               vcc              
                  vbb              q1:s             q2:s             q3:s             
 101              r2               r4               r6               vcc              
 102              rb1              vbb                                                
 103              r1               rb2              q1:e                              
 104              r2               rb3              q2:c                              
 105              r3               q2:e                                               
 106              r4               q3:c                                               
 107              r5               q3:e                                               
 108              r6               q1:c                                               
 109              rb1              q1:b                                               
 110              rb2              q2:b                                               
 111              rb3              q3:b                                               
 *****************************************************************
 ******  option summary
 ******
 runlvl  = 3         bypass  = 2         
1****** HSPICE -- D-2010.03-SP1 32-BIT (May 26 2010) winnt ******               
 ******  
 * bjt amplifier circuit

  ******  operating point information tnom=  25.000 temp=  25.000 *****
 ***** operating point status is all       simulation time is     0.     
    node    =voltage      node    =voltage      node    =voltage

 +0:101     =   9.0000  0:102     =   1.5000  0:103     = 291.4966m
 +0:104     =   8.9527  0:105     =  34.7700n 0:106     =   7.2492 
 +0:107     =   1.7683  0:108     =   8.7114  0:109     = 951.6536m
 +0:110     = 291.4982m 0:111     =   2.4748 


 ****  voltage sources

 subckt                        
 element  0:vcc      0:vbb     
  volts      9.0000     1.5000 
  current -205.6919u -288.6033n
  power      1.8512m  432.9050n

     total voltage source power dissipation=    1.8517m       watts



 **** resistors

 subckt                                                                    
 element  0:r1       0:r2       0:r3       0:r4       0:r5       0:r6      
  r value   10.0000k   27.0000k    2.0000k   10.0000k   10.0000k   10.0000k
  v drop   291.4966m   47.2722m   34.7700n    1.7508     1.7683   288.6105m
  current   29.1497u    1.7508u   17.3850p  175.0800u  176.8308u   28.8611u
  power      8.4970u   82.7652n  6.045e-19  306.5302u  312.6915u    8.3296u

 subckt                                   
 element  0:rb1      0:rb2      0:rb3     
  r value    1.9000x  190.0000k    3.7000x
  v drop   548.3464m   -1.5581u    6.4779 
  current  288.6033n   -8.2007p    1.7508u
  power    158.2546n   12.7778a   11.3416u


 **** bipolar junction transistors


 subckt                                   
 element  0:q1       0:q2       0:q3      
 model    0:mod1     0:mod1     0:mod1    
  ib       288.6104n  169.0406f    1.7508u
  ic        28.8610u   16.9245p  175.0800u
  vbe      660.1570m  291.4982m  706.4730m
  vce        8.4199     8.9527     5.4809 
  vbc       -7.7597    -8.6612    -4.7744 
  vs        -8.7114    -8.9527    -7.2492 
  power    243.1974u  151.5694p  960.8315u
  betad    100.0000   100.1207   100.0000 
  gm         1.1234m  658.7406p    6.8146m
  rpi       89.0191k  151.8048g   14.6743k
  rx         0.         0.         0.     
  ro       3.879e+16  4.330e+16  2.387e+16
  cpi       12.9047p   11.2826p   13.1085p
  cmu        2.2432p    2.1699p    2.5869p
  cbx        0.         0.         0.     
  ccs        0.         0.         0.     
  betaac   100.0000   100.0000   100.0000 
  ft        11.8028x    7.7935    69.1017x



 ******  
 * bjt amplifier circuit

  ******  transient analysis tnom=  25.000 temp=  25.000 *****
x

        time    current 1    current 2    current 3    current 1  
                    q1           q1           q1           q2     
    0.           28.8611u    288.6033n     29.1497u     25.5857p  
    1.00000n     28.8531u    305.0797n     29.1582u     -4.6196p  
    2.00000n     28.8455u    321.3980n     29.1669u    -36.5831p  
    3.00000n     28.8379u    337.6539n     29.1756u    -69.1343p  
    4.00000n     28.8307u    353.6368n     29.1843u   -102.7886p  
    5.00000n     28.8252u    367.9425n     29.1932u   -143.2185p  
    6.00000n     28.8197u    382.2482n     29.2020u   -183.6485p  
    7.00000n     28.8142u    396.5538n     29.2108u   -224.0784p  
    8.00000n     28.8088u    410.8595n     29.2196u   -264.5083p  
    9.00000n     28.8033u    425.1651n     29.2285u   -304.9382p  
   10.00000n     28.7978u    439.4708n     29.2373u   -345.3682p  
   11.00000n     28.7923u    453.7765n     29.2461u   -385.7981p  
   12.00000n     28.7868u    468.0821n     29.2549u   -426.2280p  
   13.00000n     28.7840u    479.1166n     29.2631u   -472.4185p  
   14.00000n     28.7813u    489.9716n     29.2713u   -518.9250p  
   15.00000n     28.7786u    500.8266n     29.2795u   -565.4315p  
   16.00000n     28.7785u    508.3955n     29.2869u   -573.4303p  
   17.00000n     28.7785u    515.9644n     29.2944u   -581.4290p  
   18.00000n     28.7784u    523.5334n     29.3019u   -589.4278p  
   19.00000n     28.7783u    531.1023n     29.3094u   -597.4266p  
   20.00000n     28.7789u    537.2896n     29.3162u   -612.0371p  
   21.00000n     28.7815u    539.9797n     29.3215u   -643.3823p  
   22.00000n     28.7840u    542.6699n     29.3267u   -674.7276p  
   23.00000n     28.7865u    545.3600n     29.3319u   -706.0728p  
   24.00000n     28.7891u    548.0501n     29.3371u   -737.4180p  
   25.00000n     28.7916u    550.7403n     29.3423u   -768.7632p  
   26.00000n     28.7970u    548.1480n     29.3451u   -815.4696p  
   27.00000n     28.8023u    545.5558n     29.3479u   -862.1760p  
   28.00000n     28.8077u    542.9635n     29.3507u   -908.8824p  
   29.00000n     28.8131u    540.3713n     29.3534u   -955.5888p  
   30.00000n     28.8184u    537.7790n     29.3562u     -1.0023n  
   31.00000n     28.8260u    530.3008n     29.3563u   -972.7150p  
   32.00000n     28.8336u    522.8225n     29.3564u   -943.1348p  
   33.00000n     28.8412u    515.3442n     29.3566u   -913.5546p  
   34.00000n     28.8488u    507.8660n     29.3567u   -883.9744p  
   35.00000n     28.8564u    500.3877n     29.3568u   -854.3942p  
   36.00000n     28.8650u    487.9496n     29.3529u   -851.5086p  
   37.00000n     28.8736u    475.5116n     29.3491u   -848.6229p  
   38.00000n     28.8822u    463.0736n     29.3452u   -845.7372p  
   39.00000n     28.8908u    450.6355n     29.3414u   -842.8516p  
   40.00000n     28.8993u    438.1975n     29.3375u   -839.9659p  
   41.00000n     28.9079u    425.7594n     29.3337u   -837.0803p  
   42.00000n     28.9165u    413.3214n     29.3298u   -834.1946p  
   43.00000n     28.9256u    399.1867n     29.3248u   -834.1139p  
   44.00000n     28.9351u    383.3553n     29.3184u   -836.8382p  
   45.00000n     28.9446u    367.5240n     29.3121u   -839.5625p  
   46.00000n     28.9540u    351.6927n     29.3057u   -842.2868p  
   47.00000n     28.9635u    335.8613n     29.2994u   -845.0111p  
   48.00000n     28.9730u    320.0300n     29.2931u   -847.7353p  
   49.00000n     28.9825u    304.1986n     29.2867u   -850.4596p  
   50.00000n     28.9916u    287.8774n     29.2795u   -847.2684p  
   51.00000n     29.0002u    271.3992n     29.2716u   -841.9107p  
   52.00000n     29.0085u    255.1923n     29.2637u   -776.0214p  
   53.00000n     29.0168u    239.0492n     29.2558u   -695.9053p  
   54.00000n     29.0250u    222.9060n     29.2479u   -615.7892p  
   55.00000n     29.0333u    206.7650n     29.2401u   -535.7097p  
   56.00000n     29.0381u    193.6513n     29.2317u   -506.3378p  
   57.00000n     29.0429u    180.5375n     29.2234u   -476.9658p  
   58.00000n     29.0477u    167.4238n     29.2151u   -447.5939p  
   59.00000n     29.0525u    154.3101n     29.2068u   -418.2219p  
   60.00000n     29.0573u    141.1963n     29.1985u   -388.8499p  
   61.00000n     29.0621u    128.0826n     29.1901u   -359.4780p  
   62.00000n     29.0669u    114.9689n     29.1818u   -330.1060p  
   63.00000n     29.0717u    101.8551n     29.1735u   -300.7341p  
   64.00000n     29.0764u     88.7414n     29.1652u   -271.3621p  
   65.00000n     29.0812u     75.6277n     29.1569u   -241.9901p  
   66.00000n     29.0813u     68.1921n     29.1495u   -203.0353p  
   67.00000n     29.0813u     60.7566n     29.1421u   -164.0805p  
   68.00000n     29.0814u     53.3210n     29.1347u   -125.1257p  
   69.00000n     29.0815u     45.8854n     29.1273u    -86.1708p  
   70.00000n     29.0815u     38.4499n     29.1200u    -47.2160p  
   71.00000n     29.0789u     35.9027n     29.1148u     -9.5095p  
   72.00000n     29.0764u     33.3555n     29.1097u     28.1969p  
   73.00000n     29.0738u     30.8082n     29.1046u     65.9034p  
   74.00000n     29.0712u     28.2610n     29.0995u    103.6099p  
   75.00000n     29.0686u     25.7138n     29.0943u    141.3164p  
   76.00000n     29.0633u     28.3061n     29.0916u    180.6652p  
   77.00000n     29.0579u     30.8984n     29.0888u    220.0141p  
   78.00000n     29.0525u     33.4907n     29.0860u    259.3629p  
   79.00000n     29.0472u     36.0830n     29.0833u    298.7118p  
   80.00000n     29.0418u     38.6753n     29.0805u    338.0607p  
   81.00000n     29.0342u     46.1537n     29.0804u    369.9336p  
   82.00000n     29.0266u     53.6321n     29.0803u    401.8065p  
   83.00000n     29.0190u     61.1105n     29.0801u    433.6794p  
   84.00000n     29.0114u     68.5889n     29.0800u    465.5523p  
   85.00000n     29.0038u     76.0673n     29.0799u    497.4252p  
   86.00000n     28.9952u     88.5055n     29.0837u    428.3077p  
   87.00000n     28.9866u    100.9436n     29.0875u    359.1902p  
   88.00000n     28.9780u    113.3818n     29.0914u    290.0728p  
   89.00000n     28.9694u    125.8200n     29.0952u    220.9553p  
   90.00000n     28.9608u    138.2581n     29.0990u    151.8378p  
   91.00000n     28.9521u    150.6963n     29.1028u     82.7203p  
   92.00000n     28.9435u    163.1345n     29.1067u     13.6029p  
   93.00000n     28.9344u    177.2693n     29.1117u    -29.2232p  
   94.00000n     28.9249u    193.1008n     29.1180u    -45.7577p  
   95.00000n     28.9154u    208.9323n     29.1243u    -62.2923p  
   96.00000n     28.9059u    224.7638n     29.1306u    -78.8269p  
   97.00000n     28.8963u    240.5953n     29.1369u    -95.3614p  
   98.00000n     28.8868u    256.4268n     29.1432u   -111.8960p  
   99.00000n     28.8773u    272.2582n     29.1496u   -128.4306p  
  100.00000n     28.8682u    288.5796n     29.1567u   -145.9538p  
  101.00000n     28.8595u    305.0580n     29.1646u   -163.7588p  
  102.00000n     28.8512u    321.2651n     29.1725u   -182.9312p  
  103.00000n     28.8429u    337.4085n     29.1803u   -202.4250p  
