 ****** HSPICE -- D-2010.03-SP1 32-BIT (May 26 2010) winnt ******               
  Copyright (C) 2010 Synopsys, Inc. All Rights Reserved.                        
  Unpublished-rights reserved under US copyright laws.
  This program is protected by law and is subject to the 
  terms and conditions of the license agreement from Synopsys.
  Use of this program is your acceptance to be bound by the 
  license agreement. HSPICE is the trademark of Synopsys, Inc.
  Input File: d:\synopsys\hspice\trytry\bjtamplifierdc.sp                       
  lic:  
  lic: FLEXlm: v8.5b 
  lic: USER:   zrc                  HOSTNAME: LAPTOP-O4SR7NUK 
  lic: HOSTID: "005056c00001 00ffd46088fe a87eea1f533c 005056c00008 a87eea1f5338
  
  lic: Using FLEXlm license file: 
  lic: C:\flexlm\hspice.dat 
  lic: Checkout 1 hspice 
  lic: License/Maintenance for hspice will expire on 31-dec-2020/2007.9 
  lic: NODE LOCKED license on hostid "005056c00001 00ffd46088fe a87eea1f533c 005
 0
  lic:   
 Init: read install configuration file: D:\synopsys\Hspice_D-2010.03-SP1\meta.cfg
 scientific notation:
 a=10**-18  f=10**-15  p=10**-12  n=10**-9  u=10**-6
 m=10**-3   k=10**3    x=10**6    g=10**9 


 circuit parameter definitions
  parameter          =  value 





 constants  - tnom         kt           vt           gapsi        ni
            298.15000    4.1163e-21    25.69184m     1.11562    1.2565e+16 
1****** HSPICE -- D-2010.03-SP1 32-BIT (May 26 2010) winnt ******               
 ******  
 * bjt amplifier circuit

  ******  bjt   model parameters tnom=  25.000 temp=  25.000 *****

 ************************************************************************
 *** bjt model parameters   model name:   0:mod1     model type:npn   ***
 ************************************************************************

     names  values   units     names  values   units     names  values   units
     -----  ------   -----     -----  ------   -----     -----  ------   -----

   1*** basic dc parameters ***
    level=   1.00                bf= 100.00                br=   1.00         
      brs=   0.                bulk=  gnd                  is= 2.0e-16 amps   
      iss=   0.    amps          nf=   1.00                nr=   1.00         
       ns=   1.00               ibe=   0.    amps         ibc=   0.    amps   
     subs=   1.00             expli=   0.    amps   

   2*** low current beta degradation effect parameters ***
      isc=   0.    amps         ise=   0.    amps          nc=   2.00         
       ne=   1.50         

   3*** base width modulation parameters ***
      vaf=   0.    volts        var=   0.    volts  

   4*** high current beta degradation effect parameters ***
      ikf=   0.    amps         nkf= 500.00m              ikr=   0.    amps   

   5*** parasitic resistor parameters ***
      irb=   0.    amps          rb=   0.    ohms         rbm=   0.    ohms   
       re=   0.    ohms          rc=   0.    ohms         rcc=   0.    ohms   
       vo=   0.    volts      gamma=   0.           

   6*** junction capacitor parameters ***
     cbcp=   0.    farad       cbep=   0.    farad       ccsp=   0.    farad  
      cjc=   5.00p farad        cje=  10.00p farad        cjs=   0.    farad  
       fc= 500.00m              mjc= 330.00m              mje= 330.00m        
      mjs= 500.00m              vjc= 750.00m volts        vje= 750.00m volts  
      vjs= 750.00m volts       xcjc=   1.00               qco=   0.    coul   

   7*** transit time parameters ***
      itf=   0.    amps         ptf=   0.    deg k         tf=   0.    secs   
       tr=   0.    secs         vtf=   0.                 xtf=   0.           

   8*** temperature compensation parameters ***
     tlev=   0.               tlevc=   0.                tre1=   0.    /deg   
     tre2=   0.    /deg2       trb1=   0.    /deg        trc1=   0.    /deg   
     trb2=   0.    /deg2       trm1=   0.    /deg         xtb=   0.           
     trm2=   0.    /deg2        xti=   3.00               cte=   0.    /deg   
      ctc=   0.    /deg         cts=   0.    /deg        trc2=   0.    /deg2  
     tref=  25.00   deg c       bex=   2.42              bexv=   1.90         

   9*** noise parameters ***
       kf=   0.                  af=   1.00         
1****** HSPICE -- D-2010.03-SP1 32-BIT (May 26 2010) winnt ******               
 ******  
 * bjt amplifier circuit

  ******  circuit element summary tnom=  25.000 temp=  25.000 *****


 **** resistors

  
 
                                                              
 element name        0:r1       0:r2       0:r3       0:r4    
 node1               0:103      0:101      0:105      0:101   
 node2               0:0        0:104      0:0        0:106   
 model                                                        
 res eff            10.0000k   27.0000k    2.0000k   10.0000k 
 tc1                 0.         0.         0.         0.      
 tc2                 0.         0.         0.         0.      
 scale               1.0000     1.0000     1.0000     1.0000  
 m                   1.0000     1.0000     1.0000     1.0000  
 ac                 10.0000k   27.0000k    2.0000k   10.0000k 
 temp               25.0000    25.0000    25.0000    25.0000  
 l                   0.         0.         0.         0.      
 w                   0.         0.         0.         0.      
 cap                 0.         0.         0.         0.      
 noise            1.000e+00  1.000e+00  1.000e+00  1.000e+00  
  
 
                                                              
 element name        0:r5       0:r6       0:rb1      0:rb2   
 node1               0:107      0:101      0:102      0:103   
 node2               0:0        0:108      0:109      0:110   
 model                                                        
 res eff            10.0000k   10.0000k    1.9000x  190.0000k 
 tc1                 0.         0.         0.         0.      
 tc2                 0.         0.         0.         0.      
 scale               1.0000     1.0000     1.0000     1.0000  
 m                   1.0000     1.0000     1.0000     1.0000  
 ac                 10.0000k   10.0000k    1.9000x  190.0000k 
 temp               25.0000    25.0000    25.0000    25.0000  
 l                   0.         0.         0.         0.      
 w                   0.         0.         0.         0.      
 cap                 0.         0.         0.         0.      
 noise            1.000e+00  1.000e+00  1.000e+00  1.000e+00  
  
 
                             
 element name        0:rb3   
 node1               0:104   
 node2               0:111   
 model                       
 res eff             3.7000x 
 tc1                 0.      
 tc2                 0.      
 scale               1.0000  
 m                   1.0000  
 ac                  3.7000x 
 temp               25.0000  
 l                   0.      
 w                   0.      
 cap                 0.      
 noise            1.000e+00  


 **** independent sources

     name         node1        node2      dc volt    ac mag    ac phase    type
  vcc  101               0                    9.0000     0.         0.      dc   
  vbb  102               0                    5.0000     0.         0.      dc   


 **** bipolar junction transistors

  
 
                                                
 element name        0:q1      0:q2      0:q3   
 collector           0:108     0:104     0:106  
 base                0:109     0:110     0:111  
 emitter             0:103     0:105     0:107  
 bulk                0:0       0:0       0:0    
 model               0:mod1    0:mod1    0:mod1 
 area                1.0000    1.0000    1.0000 
 
1****** HSPICE -- D-2010.03-SP1 32-BIT (May 26 2010) winnt ******               
 ******  
 * bjt amplifier circuit

  ******  element node table
                                                                                      
 0                r1               r3               r5               vcc              
                  vbb              q1:s             q2:s             q3:s             
 101              r2               r4               r6               vcc              
 102              rb1              vbb                                                
 103              r1               rb2              q1:e                              
 104              r2               rb3              q2:c                              
 105              r3               q2:e                                               
 106              r4               q3:c                                               
 107              r5               q3:e                                               
 108              r6               q1:c                                               
 109              rb1              q1:b                                               
 110              rb2              q2:b                                               
 111              rb3              q3:b                                               
 *****************************************************************
 ******  option summary
 ******
 runlvl  = 3         bypass  = 2         
 ******  
 * bjt amplifier circuit

  ******  dc transfer curves tnom=  25.000 temp=  25.000 *****
x

        volt    current 1    current 2    current 3    current 1  
                    q1           q1           q1           q3     
    2.00000      45.6386u    456.3793n     46.0950u    175.0730u  
    2.01000      45.9758u    459.7508n     46.4355u    175.0720u  
    2.02000      46.3130u    463.1228n     46.7761u    175.0709u  
    2.03000      46.6502u    466.4952n     47.1167u    175.0696u  
    2.04000      46.9875u    469.8682n     47.4574u    175.0681u  
    2.05000      47.3248u    473.2415n     47.7981u    175.0664u  
    2.06000      47.6622u    476.6154n     48.1388u    175.0645u  
    2.07000      47.9996u    479.9896n     48.4796u    175.0623u  
    2.08000      48.3371u    483.3644n     48.8205u    175.0598u  
    2.09000      48.6746u    486.7395n     49.1614u    175.0570u  
    2.10000      49.0122u    490.1151n     49.5023u    175.0537u  
    2.11000      49.3498u    493.4912n     49.8433u    175.0500u  
    2.12000      49.6874u    496.8677n     50.1843u    175.0458u  
    2.13000      50.0251u    500.2446n     50.5254u    175.0410u  
    2.14000      50.3629u    503.6219n     50.8665u    175.0355u  
    2.15000      50.7006u    506.9997n     51.2076u    175.0293u  
    2.16000      51.0385u    510.3779n     51.5488u    175.0222u  
    2.17000      51.3763u    513.7566n     51.8901u    175.0141u  
    2.18000      51.7142u    517.1357n     52.2314u    175.0049u  
    2.19000      52.0522u    520.5153n     52.5727u    174.9945u  
    2.20000      52.3902u    523.8953n     52.9141u    174.9827u  
    2.21000      52.7282u    527.2757n     53.2555u    174.9692u  
    2.22000      53.0663u    530.6566n     53.5970u    174.9540u  
    2.23000      53.4045u    534.0380n     53.9385u    174.9368u  
    2.24000      53.7427u    537.4199n     54.2801u    174.9173u  
    2.25000      54.0809u    540.8023n     54.6217u    174.8952u  
    2.26000      54.4192u    544.1852n     54.9634u    174.8704u  
    2.27000      54.7575u    547.5686n     55.3051u    174.8424u  
    2.28000      55.0959u    550.9525n     55.6469u    174.8109u  
    2.29000      55.4344u    554.3370n     55.9887u    174.7756u  
    2.30000      55.7729u    557.7221n     56.3306u    174.7361u  
    2.31000      56.1114u    561.1077n     56.6725u    174.6918u  
    2.32000      56.4501u    564.4940n     57.0146u    174.6426u  
    2.33000      56.7888u    567.8810n     57.3566u    174.5877u  
    2.34000      57.1275u    571.2686n     57.6988u    174.5269u  
    2.35000      57.4663u    574.6568n     58.0410u    174.4597u  
    2.36000      57.8052u    578.0458n     58.3833u    174.3856u  
    2.37000      58.1442u    581.4356n     58.7256u    174.3042u  
    2.38000      58.4833u    584.8260n     59.0681u    174.2151u  
    2.39000      58.8224u    588.2173n     59.4106u    174.1179u  
    2.40000      59.1616u    591.6094n     59.7532u    174.0122u  
    2.41000      59.5009u    595.0022n     60.0959u    173.8977u  
    2.42000      59.8402u    598.3959n     60.4386u    173.7741u  
    2.43000      60.1797u    601.7904n     60.7815u    173.6413u  
    2.44000      60.5192u    605.1858n     61.1244u    173.4990u  
    2.45000      60.8588u    608.5820n     61.4674u    173.3472u  
    2.46000      61.1986u    611.9791n     61.8105u    173.1857u  
    2.47000      61.5383u    615.3769n     62.1537u    173.0146u  
    2.48000      61.8782u    618.7757n     62.4970u    172.8340u  
    2.49000      62.2182u    622.1752n     62.8403u    172.6438u  
    2.50000      62.5582u    625.5756n     63.1838u    172.4443u  
    2.51000      62.8983u    628.9768n     63.5273u    172.2355u  
    2.52000      63.2385u    632.3788n     63.8709u    172.0177u  
    2.53000      63.5788u    635.7815n     64.2146u    171.7912u  
    2.54000      63.9191u    639.1850n     64.5583u    171.5561u  
    2.55000      64.2596u    642.5893n     64.9022u    171.3126u  
    2.56000      64.6001u    645.9943n     65.2461u    171.0612u  
    2.57000      64.9406u    649.3999n     65.5900u    170.8020u  
    2.58000      65.2813u    652.8063n     65.9341u    170.5353u  
    2.59000      65.6220u    656.2134n     66.2782u    170.2615u  
    2.60000      65.9627u    659.6210n     66.6224u    169.9807u  
    2.61000      66.3036u    663.0293n     66.9666u    169.6933u  
    2.62000      66.6445u    666.4383n     67.3109u    169.3995u  
    2.63000      66.9854u    669.8478n     67.6553u    169.0996u  
    2.64000      67.3264u    673.2579n     67.9997u    168.7939u  
    2.65000      67.6675u    676.6685n     68.3442u    168.4826u  
    2.66000      68.0086u    680.0797n     68.6887u    168.1659u  
    2.67000      68.3498u    683.4914n     69.0333u    167.8441u  
    2.68000      68.6910u    686.9036n     69.3779u    167.5174u  
    2.69000      69.0323u    690.3164n     69.7226u    167.1860u  
    2.70000      69.3736u    693.7296n     70.0673u    166.8501u  
    2.71000      69.7150u    697.1432n     70.4121u    166.5099u  
    2.72000      70.0564u    700.5574n     70.7569u    166.1656u  
    2.73000      70.3978u    703.9719n     71.1018u    165.8174u  
    2.74000      70.7393u    707.3869n     71.4467u    165.4653u  
    2.75000      71.0809u    710.8023n     71.7917u    165.1097u  
    2.76000      71.4224u    714.2181n     72.1367u    164.7506u  
    2.77000      71.7641u    717.6344n     72.4817u    164.3883u  
    2.78000      72.1057u    721.0510n     72.8268u    164.0227u  
    2.79000      72.4474u    724.4680n     73.1719u    163.6540u  
    2.80000      72.7892u    727.8853n     73.5170u    163.2825u  
    2.81000      73.1309u    731.3030n     73.8622u    162.9081u  
    2.82000      73.4727u    734.7211n     74.2075u    162.5310u  
    2.83000      73.8146u    738.1395n     74.5527u    162.1514u  
    2.84000      74.1564u    741.5583n     74.8980u    161.7692u  
    2.85000      74.4984u    744.9774n     75.2433u    161.3846u  
    2.86000      74.8403u    748.3968n     75.5887u    160.9978u  
    2.87000      75.1823u    751.8165n     75.9341u    160.6087u  
    2.88000      75.5243u    755.2365n     76.2795u    160.2174u  
    2.89000      75.8663u    758.6568n     76.6250u    159.8241u  
    2.90000      76.2084u    762.0775n     76.9704u    159.4288u  
    2.91000      76.5505u    765.4984n     77.3160u    159.0316u  
    2.92000      76.8926u    768.9196n     77.6615u    158.6325u  
    2.93000      77.2347u    772.3410n     78.0071u    158.2316u  
    2.94000      77.5769u    775.7628n     78.3527u    157.8290u  
    2.95000      77.9191u    779.1848n     78.6983u    157.4248u  
    2.96000      78.2613u    782.6071n     79.0439u    157.0189u  
    2.97000      78.6036u    786.0297n     79.3896u    156.6115u  
    2.98000      78.9459u    789.4525n     79.7353u    156.2025u  
    2.99000      79.2882u    792.8755n     80.0810u    155.7921u  
    3.00000      79.6305u    796.2988n     80.4268u    155.3803u  
    3.01000      79.9728u    799.7224n     80.7726u    154.9671u  
    3.02000      80.3152u    803.1462n     81.1184u    154.5526u  
    3.03000      80.6576u    806.5702n     81.4642u    154.1368u  
    3.04000      81.0001u    809.9945n     81.8100u    153.7197u  
    3.05000      81.3425u    813.4190n     82.1559u    153.3015u  
    3.06000      81.6850u    816.8437n     82.5018u    152.8820u  
    3.07000      82.0275u    820.2686n     82.8477u    152.4615u  
    3.08000      82.3700u    823.6938n     83.1937u    152.0398u  
    3.09000      82.7125u    827.1191n     83.5396u    151.6170u  
    3.10000      83.0551u    830.5447n     83.8856u    151.1932u  
    3.11000      83.3977u    833.9705n     84.2316u    150.7684u  
    3.12000      83.7403u    837.3965n     84.5776u    150.3425u  
    3.13000      84.0829u    840.8227n     84.9237u    149.9158u  
    3.14000      84.4255u    844.2491n     85.2698u    149.4881u  
    3.15000      84.7682u    847.6757n     85.6158u    149.0594u  
    3.16000      85.1109u    851.1025n     85.9620u    148.6299u  
    3.17000      85.4535u    854.5295n     86.3081u    148.1996u  
    3.18000      85.7963u    857.9567n     86.6542u    147.7683u  
    3.19000      86.1390u    861.3841n     87.0004u    147.3363u  
    3.20000      86.4818u    864.8116n     87.3466u    146.9035u  
    3.21000      86.8245u    868.2394n     87.6928u    146.4699u  
    3.22000      87.1673u    871.6673n     88.0390u    146.0355u  
    3.23000      87.5101u    875.0954n     88.3852u    145.6004u  
    3.24000      87.8530u    878.5237n     88.7315u    145.1645u  
    3.25000      88.1958u    881.9521n     89.0778u    144.7280u  
    3.26000      88.5387u    885.3808n     89.4241u    144.2908u  
    3.27000      88.8815u    888.8096n     89.7704u    143.8529u  
    3.28000      89.2244u    892.2386n     90.1167u    143.4143u  
    3.29000      89.5674u    895.6677n     90.4630u    142.9751u  
    3.30000      89.9103u    899.0970n     90.8094u    142.5353u  
    3.31000      90.2532u    902.5265n     91.1558u    142.0948u  
    3.32000      90.5962u    905.9561n     91.5022u    141.6538u  
    3.33000      90.9392u    909.3859n     91.8486u    141.2121u  
    3.34000      91.2822u    912.8159n     92.1950u    140.7699u  
    3.35000      91.6252u    916.2460n     92.5414u    140.3272u  
    3.36000      91.9682u    919.6762n     92.8879u    139.8838u  
    3.37000      92.3113u    923.1067n     93.2344u    139.4400u  
    3.38000      92.6543u    926.5372n     93.5808u    138.9956u  
    3.39000      92.9974u    929.9680n     93.9273u    138.5507u  
    3.40000      93.3405u    933.3988n     94.2739u    138.1053u  
    3.41000      93.6836u    936.8299n     94.6204u    137.6594u  
    3.42000      94.0267u    940.2610n     94.9669u    137.2130u  
    3.43000      94.3698u    943.6924n     95.3135u    136.7662u  
    3.44000      94.7130u    947.1238n     95.6601u    136.3189u  
    3.45000      95.0561u    950.5554n     96.0067u    135.8711u  
    3.46000      95.3993u    953.9872n     96.3533u    135.4229u  
    3.47000      95.7425u    957.4190n     96.6999u    134.9742u  
    3.48000      96.0857u    960.8511n     97.0465u    134.5251u  
    3.49000      96.4289u    964.2832n     97.3932u    134.0756u  
    3.50000      96.7721u    967.7155n     97.7398u    133.6257u  
    3.51000      97.1154u    971.1480n     98.0865u    133.1754u  
