 ****** HSPICE -- D-2010.03-SP1 32-BIT (May 26 2010) winnt ******               
  Copyright (C) 2010 Synopsys, Inc. All Rights Reserved.                        
  Unpublished-rights reserved under US copyright laws.
  This program is protected by law and is subject to the 
  terms and conditions of the license agreement from Synopsys.
  Use of this program is your acceptance to be bound by the 
  license agreement. HSPICE is the trademark of Synopsys, Inc.
  Input File: d:\synopsys\hspice\trytry\buffer.sp                               
  lic:  
  lic: FLEXlm: v8.5b 
  lic: USER:   zrc                  HOSTNAME: LAPTOP-O4SR7NUK 
  lic: HOSTID: "005056c00001 00ffd46088fe a87eea1f533c 005056c00008 a87eea1f5338
  
  lic: Using FLEXlm license file: 
  lic: C:\flexlm\hspice.dat 
  lic: Checkout 1 hspice 
  lic: License/Maintenance for hspice will expire on 31-dec-2020/2007.9 
  lic: NODE LOCKED license on hostid "005056c00001 00ffd46088fe a87eea1f533c 005
 0
  lic:   
 Init: read install configuration file: D:\synopsys\Hspice_D-2010.03-SP1\meta.cfg
 scientific notation:
 a=10**-18  f=10**-15  p=10**-12  n=10**-9  u=10**-6
 m=10**-3   k=10**3    x=10**6    g=10**9 


 circuit parameter definitions
  parameter          =  value 





 constants  - tnom         kt           vt           gapsi        ni
            298.15000    4.1163e-21    25.69184m     1.11562    1.2565e+16 
1****** HSPICE -- D-2010.03-SP1 32-BIT (May 26 2010) winnt ******               
 ******  
 * non-inverting buffer

  ******  mos   model parameters tnom=  25.000 temp=  25.000 *****
 ***************************************************************************
 *** common model parameters  model name:   0:modp     model type:pmos   ***
 ***************************************************************************
     names  values   units     names  values   units     names  values   units
     -----  ------   -----     -----  ------   -----     -----  ------   -----

   1*** geometry parameters ***
       ld=   0.    meters      lmlt=   1.00                wd=   0.    meters 
     wmlt=   1.00                xl=   0.    meters        xw=   0.    meters 
     lref=   0.    meters      wref=   0.    meters      lref=   0.    meters 
     wref=   0.    meters     xlref=   0.    meters     xwref=   0.    meters 
     lmin=   0.    meters      wmin=   0.    meters      lmax=   0.    meters 
     wmax=   0.    meters 

   2*** threshold voltage parameters ***
      vto=-750.00m volts        nss=   0.    1/cm**2      tpg=   1.00         
      phi= 579.84m volts      gamma=   6.07  v**0.5      bulk=  gnd           
    ngate=   0.    cm**3       nsub= 1.0e+15 1/cm**3   delvto=   0.    volts  

   3*** gate overlap capacitance parameters ***
     cgbo=   0.    f/meter     cgdo=   0.    f/meter     cgso=   0.    f/meter
     meto=   0.    meters 

   4*** gate capacitance parameters ***
    capop=   2.00               cf1=   0.    volts        cf2= 100.00m volts  
      cf3=   1.00  volts        cf4=  50.00               cf5= 666.67m        
      cf6= 500.00               xqc= 500.00m              tox=   1.15u meters 
      cox=  30.00u f/m**2 

   5*** diffusion parasitic parameters ***
      acm=   0.                  is=  10.00f amps          js=   0.    a/m**2 
      jsw=   0.    amp/m        nds=   1.00               cbd=   0.    farad  
      cbs=   0.    farad         cj= 101.85u f/m**2      cjsw=   0.    f/m    
   cjgate=   0.    f/m           mj= 500.00m             mjsw= 330.00m        
       pb= 800.00m volts        php= 800.00m volts         tt=   0.    secs   
     hdif=   0.    meters      ldif=   0.    meters        rd=   0.    ohms   
       rs=   0.    ohms         rsh=   0.    ohms/sq       fc=   0.           
    alpha=   0.                 vcr=   0.    volts      iirat=   0.           
      rdc=   0.    ohms         rsc=   0.    ohms           n=   1.00         
     vnds=  -1.00  volts  

   6*** temperature effect parameters ***
     tlev=   0.               tlevc=   0.                  eg=   1.11  ev     
     gap1= 702.00u ev/deg      gap2=   1.11k deg          xti=   0.           
      bex=  -1.50               tcv=   0.    v/deg k      trd=   0.    /deg   
      trs=   0.    /deg         cta=   0.    /deg         ctp=   0.    /deg   

   7*** noise parameters ***
       kf=   0.                  af=   1.00              nlev=   2.00         
   gdsnoi=   1.00         

   ***  level  2  model parameters  ***

    delta=   0.               ecrit=   0.    v/m       lambda=  50.00m /v     
      nfs=   0.    1/cm**2    ucrit=  10.00k v/cm        uexp=   0.           
     utra=   0.                  uo= 500.00 cm**2/vs       xj=   0.    meters 
     neff=   1.00              vmax=   0.     m/sec        kp=   1.50u a/v**2 
      mob=-1.2e-29            deriv=   0.           
 ***************************************************************************
 *** common model parameters  model name:   0:modn     model type:nmos   ***
 ***************************************************************************
     names  values   units     names  values   units     names  values   units
     -----  ------   -----     -----  ------   -----     -----  ------   -----

   1*** geometry parameters ***
       ld=   0.    meters      lmlt=   1.00                wd=   0.    meters 
     wmlt=   1.00                xl=   0.    meters        xw=   0.    meters 
     lref=   0.    meters      wref=   0.    meters      lref=   0.    meters 
     wref=   0.    meters     xlref=   0.    meters     xwref=   0.    meters 
     lmin=   0.    meters      wmin=   0.    meters      lmax=   0.    meters 
     wmax=   0.    meters 

   2*** threshold voltage parameters ***
      vto= 830.00m volts        nss=   0.    1/cm**2      tpg=   1.00         
      phi= 579.84m volts      gamma=   6.07  v**0.5      bulk=  gnd           
    ngate=   0.    cm**3       nsub= 1.0e+15 1/cm**3   delvto=   0.    volts  

   3*** gate overlap capacitance parameters ***
     cgbo=   0.    f/meter     cgdo=   0.    f/meter     cgso=   0.    f/meter
     meto=   0.    meters 

   4*** gate capacitance parameters ***
    capop=   2.00               cf1=   0.    volts        cf2= 100.00m volts  
      cf3=   1.00  volts        cf4=  50.00               cf5= 666.67m        
      cf6= 500.00               xqc= 500.00m              tox=   1.15u meters 
      cox=  30.00u f/m**2 

   5*** diffusion parasitic parameters ***
      acm=   0.                  is=  10.00f amps          js=   0.    a/m**2 
      jsw=   0.    amp/m        nds=   1.00               cbd=   0.    farad  
      cbs=   0.    farad         cj= 101.85u f/m**2      cjsw=   0.    f/m    
   cjgate=   0.    f/m           mj= 500.00m             mjsw= 330.00m        
       pb= 800.00m volts        php= 800.00m volts         tt=   0.    secs   
     hdif=   0.    meters      ldif=   0.    meters        rd=   0.    ohms   
       rs=   0.    ohms         rsh=   0.    ohms/sq       fc=   0.           
    alpha=   0.                 vcr=   0.    volts      iirat=   0.           
      rdc=   0.    ohms         rsc=   0.    ohms           n=   1.00         
     vnds=  -1.00  volts  

   6*** temperature effect parameters ***
     tlev=   0.               tlevc=   0.                  eg=   1.11  ev     
     gap1= 702.00u ev/deg      gap2=   1.11k deg          xti=   0.           
      bex=  -1.50               tcv=   0.    v/deg k      trd=   0.    /deg   
      trs=   0.    /deg         cta=   0.    /deg         ctp=   0.    /deg   

   7*** noise parameters ***
       kf=   0.                  af=   1.00              nlev=   2.00         
   gdsnoi=   1.00         

   ***  level  2  model parameters  ***

    delta=   0.               ecrit=   0.    v/m       lambda=  50.00m /v     
      nfs=   0.    1/cm**2    ucrit=  10.00k v/cm        uexp=   0.           
     utra=   0.                  uo=   1.50kcm**2/vs       xj=   0.    meters 
     neff=   1.00              vmax=   0.     m/sec        kp=   4.50u a/v**2 
      mob=-1.2e-29            deriv=   0.           
1****** HSPICE -- D-2010.03-SP1 32-BIT (May 26 2010) winnt ******               
 ******  
 * non-inverting buffer

  ******  circuit element summary tnom=  25.000 temp=  25.000 *****


 **** resistors

  
 
                                                
 element name        0:rin     0:r2      0:r3   
 node1               0:101     0:104     0:116  
 node2               0:102     0:115     0:117  
 model                                          
 res eff            10.0000   25.0000   35.0000 
 tc1                 0.        0.        0.     
 tc2                 0.        0.        0.     
 scale               1.0000    1.0000    1.0000 
 m                   1.0000    1.0000    1.0000 
 ac                 10.0000   25.0000   35.0000 
 temp               25.0000   25.0000   25.0000 
 l                   0.        0.        0.     
 w                   0.        0.        0.     
 cap                 0.        0.        0.     
 noise            1.000e+00 1.000e+00 1.000e+00 


 **** capacitors
  
 
                                                   
 element name        0:c1       0:c2       0:c3    
 node1               0:104      0:116      0:118   
 node2               0:0        0:0        0:0     
 model                                             
 cap eff           100.0000f  500.0000f    1.0000p 
 tc1                 0.         0.         0.      
 tc2                 0.         0.         0.      
 scale               1.0000     1.0000     1.0000  
 ic                  0.         0.         0.      
 m                   1.0000     1.0000     1.0000  
 w                   0.         0.         0.      
 l                   0.         0.         0.      
 temp               25.0000    25.0000    25.0000  


 **** inductors
  
 
                                        
 element name        0:l1       0:l2    
 node1               0:115      0:117   
 node2               0:116      0:118   
 model                                  
 ind eff           500.0000f  500.0000f 
 res eff             0.         0.      
 tc1                 0.         0.      
 tc2                 0.         0.      
 nt                  1.0000     1.0000  
 ic                  0.         0.      
 m                   1.0000     1.0000  


 **** independent sources

     name         node1        node2      dc volt    ac mag    ac phase    type
  vdd  103               0                    3.0000     0.         0.      dc   
  vin  101               0                    1.5000     0.         0.      dc   


 **** mosfets
  
 
                                                              
 element name        0:m1       0:m2       0:m3       0:m4    
 drain               0:107      0:107      0:104      0:104   
 gate                0:102      0:102      0:107      0:107   
 source              0:103      0:0        0:103      0:0     
 bulk                0:103      0:0        0:103      0:0     
 model               0:modp     0:modn     0:modp     0:modn  
 w eff              30.0000u   10.0000u   60.0000u   20.0000u 
 l eff             350.0000n  350.0000n  350.0000n  350.0000n 
 rd eff              0.         0.         0.         0.      
 rs eff              0.         0.         0.         0.      
 cdsat              10.0000f   10.0000f   10.0000f   10.0000f 
 cssat              10.0000f   10.0000f   10.0000f   10.0000f 
 capbd               0.         0.         0.         0.      
 capbs               0.         0.         0.         0.      
 temp               25.0000    25.0000    25.0000    25.0000  
 aic                                                          
  
 
1****** HSPICE -- D-2010.03-SP1 32-BIT (May 26 2010) winnt ******               
 ******  
 * non-inverting buffer

  ******  element node table
                                                                                      
 0                c1               c2               c3               vdd              
                  vin              m2:s             m2:b             m4:s             
                  m4:b                                                                
 101              rin              vin                                                
 102              rin              m1:g             m2:g                              
 103              vdd              m1:s             m1:b             m3:s             
                  m3:b                                                                
 104              r2               c1               m3:d             m4:d             
 107              m1:d             m2:d             m3:g             m4:g             
 115              r2               l1                                                 
 116              r3               c2               l1                                
 117              r3               l2                                                 
 118              c3               l2                                                 
 **info** set option symb=1 internally to help for convergence.
 *****************************************************************
 ******  option summary
 ******
 runlvl  = 3         bypass  = 2         

 **info** rebuilding matrix with pivot option

 ******  
 * non-inverting buffer

  ******  dc transfer curves tnom=  25.000 temp=  25.000 *****
x

        volt    current      current      current      current    
                    m1           m2           m3           m4     
    0.           -6.0300p      6.0300p     -6.0300p      6.0300p  
   10.00000m     -6.0299p      6.0300p     -6.0300p      6.0300p  
   20.00000m     -6.0299p      6.0300p     -6.0300p      6.0300p  
   30.00000m     -6.0299p      6.0300p     -6.0300p      6.0300p  
   40.00000m     -6.0299p      6.0300p     -6.0300p      6.0300p  
   50.00000m     -6.0299p      6.0300p     -6.0300p      6.0300p  
   60.00000m     -6.0299p      6.0300p     -6.0300p      6.0300p  
   70.00000m     -6.0299p      6.0300p     -6.0300p      6.0300p  
   80.00000m     -6.0299p      6.0300p     -6.0300p      6.0300p  
   90.00000m     -6.0299p      6.0300p     -6.0300p      6.0300p  
  100.00000m     -6.0299p      6.0300p     -6.0300p      6.0300p  
  110.00000m     -6.0299p      6.0300p     -6.0300p      6.0300p  
  120.00000m     -6.0299p      6.0300p     -6.0300p      6.0300p  
  130.00000m     -6.0299p      6.0300p     -6.0300p      6.0300p  
  140.00000m     -6.0299p      6.0300p     -6.0300p      6.0300p  
  150.00000m     -6.0299p      6.0300p     -6.0300p      6.0300p  
  160.00000m     -6.0299p      6.0300p     -6.0300p      6.0300p  
  170.00000m     -6.0299p      6.0300p     -6.0300p      6.0300p  
  180.00000m     -6.0299p      6.0300p     -6.0300p      6.0300p  
  190.00000m     -6.0299p      6.0300p     -6.0300p      6.0300p  
  200.00000m     -6.0299p      6.0300p     -6.0300p      6.0300p  
  210.00000m     -6.0299p      6.0300p     -6.0300p      6.0300p  
  220.00000m     -6.0299p      6.0300p     -6.0300p      6.0300p  
  230.00000m     -6.0299p      6.0300p     -6.0300p      6.0300p  
  240.00000m     -6.0299p      6.0300p     -6.0300p      6.0300p  
  250.00000m     -6.0299p      6.0300p     -6.0300p      6.0300p  
  260.00000m     -6.0298p      6.0300p     -6.0300p      6.0300p  
  270.00000m     -6.0298p      6.0300p     -6.0300p      6.0300p  
  280.00000m     -6.0298p      6.0300p     -6.0300p      6.0300p  
  290.00000m     -6.0298p      6.0300p     -6.0300p      6.0300p  
  300.00000m     -6.0298p      6.0300p     -6.0300p      6.0300p  
  310.00000m     -6.0298p      6.0300p     -6.0300p      6.0300p  
  320.00000m     -6.0298p      6.0300p     -6.0300p      6.0300p  
  330.00000m     -6.0298p      6.0300p     -6.0300p      6.0300p  
  340.00000m     -6.0298p      6.0300p     -6.0300p      6.0300p  
  350.00000m     -6.0298p      6.0300p     -6.0300p      6.0300p  
  360.00000m     -6.0298p      6.0300p     -6.0300p      6.0300p  
  370.00000m     -6.0298p      6.0300p     -6.0300p      6.0300p  
  380.00000m     -6.0298p      6.0300p     -6.0300p      6.0300p  
  390.00000m     -6.0298p      6.0300p     -6.0300p      6.0300p  
  400.00000m     -6.0298p      6.0300p     -6.0300p      6.0300p  
  410.00000m     -6.0298p      6.0300p     -6.0300p      6.0300p  
  420.00000m     -6.0298p      6.0300p     -6.0300p      6.0300p  
  430.00000m     -6.0298p      6.0300p     -6.0300p      6.0300p  
  440.00000m     -6.0298p      6.0300p     -6.0300p      6.0300p  
  450.00000m     -6.0298p      6.0300p     -6.0300p      6.0300p  
  460.00000m     -6.0298p      6.0300p     -6.0300p      6.0300p  
  470.00000m     -6.0298p      6.0300p     -6.0300p      6.0300p  
  480.00000m     -6.0298p      6.0300p     -6.0300p      6.0300p  
  490.00000m     -6.0298p      6.0300p     -6.0300p      6.0300p  
  500.00000m     -6.0298p      6.0300p     -6.0300p      6.0300p  
  510.00000m     -6.0298p      6.0300p     -6.0300p      6.0300p  
  520.00000m     -6.0298p      6.0300p     -6.0300p      6.0300p  
  530.00000m     -6.0298p      6.0300p     -6.0300p      6.0300p  
  540.00000m     -6.0298p      6.0300p     -6.0300p      6.0300p  
  550.00000m     -6.0298p      6.0300p     -6.0300p      6.0300p  
  560.00000m     -6.0298p      6.0300p     -6.0300p      6.0300p  
  570.00000m     -6.0298p      6.0300p     -6.0300p      6.0300p  
  580.00000m     -6.0298p      6.0300p     -6.0300p      6.0300p  
  590.00000m     -6.0298p      6.0300p     -6.0300p      6.0300p  
  600.00000m     -6.0298p      6.0300p     -6.0300p      6.0300p  
  610.00000m     -6.0298p      6.0300p     -6.0300p      6.0300p  
  620.00000m     -6.0298p      6.0300p     -6.0300p      6.0300p  
  630.00000m     -6.0298p      6.0300p     -6.0300p      6.0300p  
  640.00000m     -6.0298p      6.0300p     -6.0300p      6.0300p  
  650.00000m     -6.0298p      6.0300p     -6.0300p      6.0300p  
  660.00000m     -6.0298p      6.0300p     -6.0300p      6.0300p  
  670.00000m     -6.0298p      6.0300p     -6.0300p      6.0300p  
  680.00000m     -6.0298p      6.0300p     -6.0300p      6.0300p  
  690.00000m     -6.0298p      6.0300p     -6.0300p      6.0300p  
  700.00000m     -6.0298p      6.0300p     -6.0300p      6.0300p  
  710.00000m     -6.0297p      6.0300p     -6.0300p      6.0300p  
  720.00000m     -6.0297p      6.0300p     -6.0300p      6.0300p  
  730.00000m     -6.0297p      6.0300p     -6.0300p      6.0300p  
  740.00000m     -6.0297p      6.0300p     -6.0300p      6.0300p  
  750.00000m     -6.0297p      6.0300p     -6.0300p      6.0300p  
  760.00000m     -6.0297p      6.0300p     -6.0300p      6.0300p  
  770.00000m     -6.0297p      6.0300p     -6.0300p      6.0300p  
  780.00000m     -6.0297p      6.0300p     -6.0300p      6.0300p  
  790.00000m     -6.0297p      6.0300p     -6.0300p      6.0300p  
  800.00000m     -6.0297p      6.0300p     -6.0300p      6.0300p  
  810.00000m     -6.0297p      6.0300p     -6.0300p      6.0300p  
  820.00000m     -6.0297p      6.0300p     -6.0300p      6.0300p  
  830.00000m     -6.0297p      6.0300p     -6.0300p      6.0300p  
  840.00000m     -6.0297p    763.6722p     -6.0300p      6.0300p  
  850.00000m     -2.2685n      3.0380n     -6.0300p      6.0300p  
  860.00000m     -6.0494n      6.8311n     -6.0300p      6.0300p  
  870.00000m    -11.3508n     12.1450n     -6.0300p      6.0300p  
  880.00000m    -18.1747n     18.9819n     -6.0300p      6.0300p  
