 ****** HSPICE -- D-2010.03-SP1 32-BIT (May 26 2010) winnt ******               
  Copyright (C) 2010 Synopsys, Inc. All Rights Reserved.                        
  Unpublished-rights reserved under US copyright laws.
  This program is protected by law and is subject to the 
  terms and conditions of the license agreement from Synopsys.
  Use of this program is your acceptance to be bound by the 
  license agreement. HSPICE is the trademark of Synopsys, Inc.
  Input File: d:\synopsys\hspice\trytry\buffertrans.sp                          
  lic:  
  lic: FLEXlm: v8.5b 
  lic: USER:   zrc                  HOSTNAME: LAPTOP-O4SR7NUK 
  lic: HOSTID: "005056c00001 00ffd46088fe a87eea1f533c 005056c00008 a87eea1f5338
  
  lic: Using FLEXlm license file: 
  lic: C:\flexlm\hspice.dat 
  lic: Checkout 1 hspice 
  lic: License/Maintenance for hspice will expire on 31-dec-2020/2007.9 
  lic: NODE LOCKED license on hostid "005056c00001 00ffd46088fe a87eea1f533c 005
 0
  lic:   
 Init: read install configuration file: D:\synopsys\Hspice_D-2010.03-SP1\meta.cfg
 **warning** (d:\synopsys\hspice\trytry\buffertrans.sp:2) nonstandard number 1e-9s is interpreted as 1e-009
 **warning** (d:\synopsys\hspice\trytry\buffertrans.sp:2) nonstandard number 2e-7s is interpreted as 2e-007
 scientific notation:
 a=10**-18  f=10**-15  p=10**-12  n=10**-9  u=10**-6
 m=10**-3   k=10**3    x=10**6    g=10**9 


 circuit parameter definitions
  parameter          =  value 





 constants  - tnom         kt           vt           gapsi        ni
            298.15000    4.1163e-21    25.69184m     1.11562    1.2565e+16 
1****** HSPICE -- D-2010.03-SP1 32-BIT (May 26 2010) winnt ******               
 ******  
 * non-inverting buffer

  ******  mos   model parameters tnom=  25.000 temp=  25.000 *****
 ***************************************************************************
 *** common model parameters  model name:   0:modp     model type:pmos   ***
 ***************************************************************************
     names  values   units     names  values   units     names  values   units
     -----  ------   -----     -----  ------   -----     -----  ------   -----

   1*** geometry parameters ***
       ld=   0.    meters      lmlt=   1.00                wd=   0.    meters 
     wmlt=   1.00                xl=   0.    meters        xw=   0.    meters 
     lref=   0.    meters      wref=   0.    meters      lref=   0.    meters 
     wref=   0.    meters     xlref=   0.    meters     xwref=   0.    meters 
     lmin=   0.    meters      wmin=   0.    meters      lmax=   0.    meters 
     wmax=   0.    meters 

   2*** threshold voltage parameters ***
      vto=-750.00m volts        nss=   0.    1/cm**2      tpg=   1.00         
      phi= 579.84m volts      gamma=   6.07  v**0.5      bulk=  gnd           
    ngate=   0.    cm**3       nsub= 1.0e+15 1/cm**3   delvto=   0.    volts  

   3*** gate overlap capacitance parameters ***
     cgbo=   0.    f/meter     cgdo=   0.    f/meter     cgso=   0.    f/meter
     meto=   0.    meters 

   4*** gate capacitance parameters ***
    capop=   0.                 cf1=   0.    volts        cf2= 100.00m volts  
      cf3=   1.00  volts        cf4=  50.00               cf5= 666.67m        
      cf6= 500.00               xqc= 500.00m              tox=   1.15u meters 
      cox=  30.00u f/m**2 

   5*** diffusion parasitic parameters ***
      acm=   0.                  is=  10.00f amps          js=   0.    a/m**2 
      jsw=   0.    amp/m        nds=   1.00               cbd=   0.    farad  
      cbs=   0.    farad         cj=  40.00f f/m**2      cjsw=   0.    f/m    
   cjgate=   0.    f/m           mj= 500.00m             mjsw= 330.00m        
       pb= 800.00m volts        php= 800.00m volts         tt=   0.    secs   
     hdif=   0.    meters      ldif=   0.    meters        rd=   0.    ohms   
       rs=   0.    ohms         rsh=   0.    ohms/sq       fc=   0.           
    alpha=   0.                 vcr=   0.    volts      iirat=   0.           
      rdc=   0.    ohms         rsc=   0.    ohms           n=   1.00         
     vnds=  -1.00  volts  

   6*** temperature effect parameters ***
     tlev=   0.               tlevc=   0.                  eg=   1.11  ev     
     gap1= 702.00u ev/deg      gap2=   1.11k deg          xti=   0.           
      bex=  -1.50               tcv=   0.    v/deg k      trd=   0.    /deg   
      trs=   0.    /deg         cta=   0.    /deg         ctp=   0.    /deg   

   7*** noise parameters ***
       kf=   0.                  af=   1.00              nlev=   2.00         
   gdsnoi=   1.00         

   ***  level  1  model parameters  ***

   lambda=  50.00m /v            kp=   1.50u a/v**2 
 ***************************************************************************
 *** common model parameters  model name:   0:modn     model type:nmos   ***
 ***************************************************************************
     names  values   units     names  values   units     names  values   units
     -----  ------   -----     -----  ------   -----     -----  ------   -----

   1*** geometry parameters ***
       ld=   0.    meters      lmlt=   1.00                wd=   0.    meters 
     wmlt=   1.00                xl=   0.    meters        xw=   0.    meters 
     lref=   0.    meters      wref=   0.    meters      lref=   0.    meters 
     wref=   0.    meters     xlref=   0.    meters     xwref=   0.    meters 
     lmin=   0.    meters      wmin=   0.    meters      lmax=   0.    meters 
     wmax=   0.    meters 

   2*** threshold voltage parameters ***
      vto= 830.00m volts        nss=   0.    1/cm**2      tpg=   1.00         
      phi= 579.84m volts      gamma=   6.07  v**0.5      bulk=  gnd           
    ngate=   0.    cm**3       nsub= 1.0e+15 1/cm**3   delvto=   0.    volts  

   3*** gate overlap capacitance parameters ***
     cgbo=   0.    f/meter     cgdo=   0.    f/meter     cgso=   0.    f/meter
     meto=   0.    meters 

   4*** gate capacitance parameters ***
    capop=   0.                 cf1=   0.    volts        cf2= 100.00m volts  
      cf3=   1.00  volts        cf4=  50.00               cf5= 666.67m        
      cf6= 500.00               xqc= 500.00m              tox=   1.15u meters 
      cox=  30.00u f/m**2 

   5*** diffusion parasitic parameters ***
      acm=   0.                  is=  10.00f amps          js=   0.    a/m**2 
      jsw=   0.    amp/m        nds=   1.00               cbd=   0.    farad  
      cbs=   0.    farad         cj=  40.00f f/m**2      cjsw=   0.    f/m    
   cjgate=   0.    f/m           mj= 500.00m             mjsw= 330.00m        
       pb= 800.00m volts        php= 800.00m volts         tt=   0.    secs   
     hdif=   0.    meters      ldif=   0.    meters        rd=   0.    ohms   
       rs=   0.    ohms         rsh=   0.    ohms/sq       fc=   0.           
    alpha=   0.                 vcr=   0.    volts      iirat=   0.           
      rdc=   0.    ohms         rsc=   0.    ohms           n=   1.00         
     vnds=  -1.00  volts  

   6*** temperature effect parameters ***
     tlev=   0.               tlevc=   0.                  eg=   1.11  ev     
     gap1= 702.00u ev/deg      gap2=   1.11k deg          xti=   0.           
      bex=  -1.50               tcv=   0.    v/deg k      trd=   0.    /deg   
      trs=   0.    /deg         cta=   0.    /deg         ctp=   0.    /deg   

   7*** noise parameters ***
       kf=   0.                  af=   1.00              nlev=   2.00         
   gdsnoi=   1.00         

   ***  level  1  model parameters  ***

   lambda=  50.00m /v            kp=   4.50u a/v**2 
  **info** (d:\synopsys\hspice\trytry\buffertrans.sp:12) DC voltage reset to initial transient source value              in source        0:vin                 new dc=  0.1500D+01
1****** HSPICE -- D-2010.03-SP1 32-BIT (May 26 2010) winnt ******               
 ******  
 * non-inverting buffer

  ******  circuit element summary tnom=  25.000 temp=  25.000 *****


 **** resistors

  
 
                                                
 element name        0:rin     0:r2      0:r3   
 node1               0:101     0:104     0:116  
 node2               0:102     0:115     0:117  
 model                                          
 res eff            10.0000   25.0000   35.0000 
 tc1                 0.        0.        0.     
 tc2                 0.        0.        0.     
 scale               1.0000    1.0000    1.0000 
 m                   1.0000    1.0000    1.0000 
 ac                 10.0000   25.0000   35.0000 
 temp               25.0000   25.0000   25.0000 
 l                   0.        0.        0.     
 w                   0.        0.        0.     
 cap                 0.        0.        0.     
 noise            1.000e+00 1.000e+00 1.000e+00 


 **** capacitors
  
 
                                                   
 element name        0:c1       0:c2       0:c3    
 node1               0:104      0:116      0:118   
 node2               0:0        0:0        0:0     
 model                                             
 cap eff           100.0000f  500.0000f    1.0000p 
 tc1                 0.         0.         0.      
 tc2                 0.         0.         0.      
 scale               1.0000     1.0000     1.0000  
 ic                  0.         0.         0.      
 m                   1.0000     1.0000     1.0000  
 w                   0.         0.         0.      
 l                   0.         0.         0.      
 temp               25.0000    25.0000    25.0000  


 **** inductors
  
 
                                        
 element name        0:l1       0:l2    
 node1               0:115      0:117   
 node2               0:116      0:118   
 model                                  
 ind eff           500.0000f  500.0000f 
 res eff             0.         0.      
 tc1                 0.         0.      
 tc2                 0.         0.      
 nt                  1.0000     1.0000  
 ic                  0.         0.      
 m                   1.0000     1.0000  


 **** independent sources

     name         node1        node2      dc volt    ac mag    ac phase    type
  vdd  103               0                    3.0000     0.         0.      dc   
  vin  101               0                    1.5000     0.         0.      sin  
             offset.......     1.5000 
             amplitude....     2.0000 
             frequency....    10.0000x
             delay........     0.     
             theta........     0.     
             phase........     0.     



 **** mosfets
  
 
                                                              
 element name        0:m1       0:m2       0:m3       0:m4    
 drain               0:107      0:107      0:104      0:104   
 gate                0:102      0:102      0:107      0:107   
 source              0:103      0:0        0:103      0:0     
 bulk                0:103      0:0        0:103      0:0     
 model               0:modp     0:modn     0:modp     0:modn  
 w eff              30.0000u   10.0000u   60.0000u   20.0000u 
 l eff             350.0000n  350.0000n  350.0000n  350.0000n 
 rd eff              0.         0.         0.         0.      
 rs eff              0.         0.         0.         0.      
 cdsat              10.0000f   10.0000f   10.0000f   10.0000f 
 cssat              10.0000f   10.0000f   10.0000f   10.0000f 
 capbd               0.         0.         0.         0.      
 capbs               0.         0.         0.         0.      
 temp               25.0000    25.0000    25.0000    25.0000  
 aic                                                          
  
 
1****** HSPICE -- D-2010.03-SP1 32-BIT (May 26 2010) winnt ******               
 ******  
 * non-inverting buffer

  ******  element node table
                                                                                      
 0                c1               c2               c3               vdd              
                  vin              m2:s             m2:b             m4:s             
                  m4:b                                                                
 101              rin              vin                                                
 102              rin              m1:g             m2:g                              
 103              vdd              m1:s             m1:b             m3:s             
                  m3:b                                                                
 104              r2               c1               m3:d             m4:d             
 107              m1:d             m2:d             m3:g             m4:g             
 115              r2               l1                                                 
 116              r3               c2               l1                                
 117              r3               l2                                                 
 118              c3               l2                                                 
 **info** set option symb=1 internally to help for convergence.
 *****************************************************************
 ******  option summary
 ******
 runlvl  = 3         bypass  = 2         

 **info** rebuilding matrix with pivot option

1****** HSPICE -- D-2010.03-SP1 32-BIT (May 26 2010) winnt ******               
 ******  
 * non-inverting buffer

  ******  operating point information tnom=  25.000 temp=  25.000 *****
 ***** operating point status is all       simulation time is     0.     
    node    =voltage      node    =voltage      node    =voltage

 +0:101     =   1.5000  0:102     =   1.5000  0:103     =   3.0000 
 +0:104     =  13.9329n 0:107     =   2.5131  0:115     =  13.9329n
 +0:116     =  13.9329n 0:117     =  13.9329n 0:118     =  13.9329n


 ****  voltage sources

 subckt                        
 element  0:vdd      0:vin     
  volts      3.0000     1.5000 
  current  -32.4840u    0.     
  power     97.4519u    0.     

     total voltage source power dissipation=   97.4519u       watts



 **** resistors

 subckt                                   
 element  0:rin      0:r2       0:r3      
  r value   10.0000    25.0000    35.0000 
  v drop  -222.0446a    0.         0.     
  current  -22.2045a    0.         0.     
  power      0.         0.         0.     



 **** mosfets


 subckt                                              
 element  0:m1       0:m2       0:m3       0:m4      
 model    0:modp     0:modn     0:modp     0:modn    
 region       Linear   Saturati     Cutoff     Linear
  id       -32.4839u   32.4839u    0.         6.0300p
  ibs        0.         0.         0.         0.     
  ibd        4.8693f  -25.1307f   30.0000f -1.393e-22
  vgs       -1.5000     1.5000  -486.9330m    2.5131 
  vds     -486.9330m    2.5131    -3.0000    13.9329n
  vbs        0.         0.         0.         0.     
  vth     -750.0000m  830.0000m -750.0000m  830.0000m
  vdsat   -486.9330m  670.0000m    0.        13.9329n
  vod     -750.0000m  670.0000m  263.0670m    1.6831 
  beta     131.7017u  144.7269u  257.1429u  257.1429u
  gam eff    6.0732     6.0732     6.0732     6.0732 
  gm        64.1299u   96.9670u    0.         3.5827p
  gds       36.2320u    1.4429u    0.       432.7887u
  gmb      255.7380u  386.6861u    0.        14.2873p
  cdtot      0.         0.         0.         0.     
  cgtot    210.0011a   70.0004a  324.7275a  140.0007a
  cstot    210.0011a   70.0004a   38.9039a  140.0007a
  cbtot      0.         0.       285.8237a    0.     
  cgs      210.0011a   70.0004a   38.9039a  140.0007a
  cgd        0.         0.         0.         0.     



 ******  
 * non-inverting buffer

  ******  transient analysis tnom=  25.000 temp=  25.000 *****
x

        time    current 1    current 2    current      current    
                    m1           m1           m2           m3     
    0.          -32.4839u      0.          32.4839u     -6.0300p  
    1.00000n    -28.3860u     26.3375n     28.5541u   -528.1703u  
    2.00000n    -18.3311u     26.1815n     18.4532u   -624.0939u  
    3.00000n    -10.4812u     25.9319n     10.3997u   -663.7118u  
    4.00000n     -5.0210u     25.5568n      5.1101u   -632.5894u  
    5.00000n     -2.4393u     24.6456n      2.4834u   -554.1839u  
    6.00000n     -1.0167u     23.5032n    898.1400n   -458.3455u  
    7.00000n     -6.0320p     22.4075n   -192.1250n   -366.7582u  
    8.00000n     -6.0305p     21.4288n    -42.2856n   -285.8209u  
    9.00000n     -6.0291p     20.4501n    107.5538n   -204.8836u  
   10.00000n     -6.0291p     21.7022n     96.8139n   -154.7004u  
   11.00000n     -6.0297p     23.9221n     16.4102n   -117.8591u  
   12.00000n     -6.0304p     26.1420n    -63.9934n    -81.0178u  
   13.00000n     -6.0310p     28.3619n   -144.3970n    -44.1766u  
   14.00000n     -6.0300p     25.2314n     -2.0566n    -32.3806u  
   15.00000n     -6.0290p     21.9721n    145.6491n    -21.1878u  
   16.00000n     -6.0294p     21.5249n     82.6000n    -16.9027u  
   17.00000n     -6.0299p     21.0777n     19.5509n    -12.6176u  
   18.00000n     -6.0300p     17.1607n      5.1174n     -9.2299u  
   19.00000n     -6.0300p     12.4206n      2.2167n     -6.0550u  
   20.00000n     -6.0300p     10.6001n      1.8499n     -4.9089u  
   21.00000n     -6.0300p      8.9746n      1.6525n     -3.8983u  
   22.00000n     -6.0300p      7.3492n      1.4551n     -2.8878u  
   23.00000n     -6.0300p      5.7238n      1.2576n     -1.8772u  
   24.00000n     -6.0300p      4.0983n      1.0602n   -866.6943n  
   25.00000n     -6.0300p      2.4729n    862.7532p    143.8531n  
   26.00000n     -6.0300p    744.9557p    715.4605p    137.3596n  
   27.00000n     -6.0300p   -983.0013p    568.1678p    130.8660n  
   28.00000n     -6.0300p     -2.7110n    420.8751p    124.3724n  
   29.00000n     -6.0300p     -4.4389n    273.5825p    117.8789n  
   30.00000n     -6.0300p     -6.1669n    126.2898p    111.3853n  
   31.00000n     -6.0300p    -15.6686n     75.2667p     92.7572n  
   32.00000n     -6.0300p    -21.7934n     29.3273p     74.3688n  
   33.00000n     -6.0300p    -20.3014n     -5.1455p     56.5212n  
   34.00000n     -6.0300p    -18.8094n    -39.6183p     38.6736n  
   35.00000n     -6.0300p    -17.3174n    -74.0911p     20.8260n  
   36.00000n     -6.0300p    -18.6873n    -80.1046p     18.1648n  
   37.00000n     -6.0300p    -20.0573n    -86.1181p     15.5035n  
   38.00000n     -6.0300p    -21.4272n    -92.1317p     12.8423n  
   39.00000n     -6.0301p    -22.7971n    -98.1452p     10.1811n  
   40.00000n     -6.0301p    -24.1670n   -104.1588p      7.5199n  
   41.00000n     -6.0301p    -21.0478n    -16.0565p      5.5286n  
   42.00000n   -289.7308n    -18.3663n    288.4552n      3.4884n  
   43.00000n     -3.2848u    -19.7718n      3.2698u    991.7890p  
   44.00000n     -6.2800u    -21.1774n      6.2511u     -1.5048n  
   45.00000n     -9.2751u    -22.5830n      9.2325u     -4.0014n  
   46.00000n    -12.2702u    -23.9885n     12.2138u     -6.4979n  
   47.00000n    -15.2653u    -25.3941n     15.1951u     -8.9945n  
   48.00000n    -18.3017u    -26.7838n     18.2177u    -11.8491n  
   49.00000n    -28.5165u    -26.3476n     28.3380u    -93.2667n  
   50.00000n    -35.1628u    -26.3432n     32.3576u     -1.0816u  
   51.00000n    -21.8223u    -26.3365n     21.7463u   -833.4978f  
   52.00000n    -13.4279u    -26.1771n     13.3980u     -1.5741p  
