 ****** HSPICE -- D-2010.03-SP1 32-BIT (May 26 2010) winnt ******               
  Copyright (C) 2010 Synopsys, Inc. All Rights Reserved.                        
  Unpublished-rights reserved under US copyright laws.
  This program is protected by law and is subject to the 
  terms and conditions of the license agreement from Synopsys.
  Use of this program is your acceptance to be bound by the 
  license agreement. HSPICE is the trademark of Synopsys, Inc.
  Input File: d:\synopsys\hspice\trytry\bufferac.sp                             
  lic:  
  lic: FLEXlm: v8.5b 
  lic: USER:   zrc                  HOSTNAME: LAPTOP-O4SR7NUK 
  lic: HOSTID: "005056c00001 00ffd46088fe a87eea1f533c 005056c00008 a87eea1f5338
  
  lic: Using FLEXlm license file: 
  lic: C:\flexlm\hspice.dat 
  lic: Checkout 1 hspice 
  lic: License/Maintenance for hspice will expire on 31-dec-2020/2007.9 
  lic: NODE LOCKED license on hostid "005056c00001 00ffd46088fe a87eea1f533c 005
 0
  lic:   
 Init: read install configuration file: D:\synopsys\Hspice_D-2010.03-SP1\meta.cfg
 scientific notation:
 a=10**-18  f=10**-15  p=10**-12  n=10**-9  u=10**-6
 m=10**-3   k=10**3    x=10**6    g=10**9 


 circuit parameter definitions
  parameter          =  value 





 constants  - tnom         kt           vt           gapsi        ni
            298.15000    4.1163e-21    25.69184m     1.11562    1.2565e+16 
1****** HSPICE -- D-2010.03-SP1 32-BIT (May 26 2010) winnt ******               
 ******  
 * non-inverting buffer

  ******  mos   model parameters tnom=  25.000 temp=  25.000 *****
 ***************************************************************************
 *** common model parameters  model name:   0:modp     model type:pmos   ***
 ***************************************************************************
     names  values   units     names  values   units     names  values   units
     -----  ------   -----     -----  ------   -----     -----  ------   -----

   1*** geometry parameters ***
       ld=   0.    meters      lmlt=   1.00                wd=   0.    meters 
     wmlt=   1.00                xl=   0.    meters        xw=   0.    meters 
     lref=   0.    meters      wref=   0.    meters      lref=   0.    meters 
     wref=   0.    meters     xlref=   0.    meters     xwref=   0.    meters 
     lmin=   0.    meters      wmin=   0.    meters      lmax=   0.    meters 
     wmax=   0.    meters 

   2*** threshold voltage parameters ***
      vto=-750.00m volts        nss=   0.    1/cm**2      tpg=   1.00         
      phi= 579.84m volts      gamma=   6.07  v**0.5      bulk=  gnd           
    ngate=   0.    cm**3       nsub= 1.0e+15 1/cm**3   delvto=   0.    volts  

   3*** gate overlap capacitance parameters ***
     cgbo=   0.    f/meter     cgdo=   0.    f/meter     cgso=   0.    f/meter
     meto=   0.    meters 

   4*** gate capacitance parameters ***
    capop=   2.00               cf1=   0.    volts        cf2= 100.00m volts  
      cf3=   1.00  volts        cf4=  50.00               cf5= 666.67m        
      cf6= 500.00               xqc= 500.00m              tox=   1.15u meters 
      cox=  30.00u f/m**2 

   5*** diffusion parasitic parameters ***
      acm=   0.                  is=  10.00f amps          js=   0.    a/m**2 
      jsw=   0.    amp/m        nds=   1.00               cbd=   0.    farad  
      cbs=   0.    farad         cj=  40.00f f/m**2      cjsw=   0.    f/m    
   cjgate=   0.    f/m           mj= 500.00m             mjsw= 330.00m        
       pb= 800.00m volts        php= 800.00m volts         tt=   0.    secs   
     hdif=   0.    meters      ldif=   0.    meters        rd=   0.    ohms   
       rs=   0.    ohms         rsh=   0.    ohms/sq       fc=   0.           
    alpha=   0.                 vcr=   0.    volts      iirat=   0.           
      rdc=   0.    ohms         rsc=   0.    ohms           n=   1.00         
     vnds=  -1.00  volts  

   6*** temperature effect parameters ***
     tlev=   0.               tlevc=   0.                  eg=   1.11  ev     
     gap1= 702.00u ev/deg      gap2=   1.11k deg          xti=   0.           
      bex=  -1.50               tcv=   0.    v/deg k      trd=   0.    /deg   
      trs=   0.    /deg         cta=   0.    /deg         ctp=   0.    /deg   

   7*** noise parameters ***
       kf=   0.                  af=   1.00              nlev=   2.00         
   gdsnoi=   1.00         

   ***  level  2  model parameters  ***

    delta=   0.               ecrit=   0.    v/m       lambda=  50.00m /v     
      nfs=   0.    1/cm**2    ucrit=  10.00k v/cm        uexp=   0.           
     utra=   0.                  uo= 500.00 cm**2/vs       xj=   0.    meters 
     neff=   1.00              vmax=   0.     m/sec        kp=   1.50u a/v**2 
      mob=-1.2e-29            deriv=   0.           
 ***************************************************************************
 *** common model parameters  model name:   0:modn     model type:nmos   ***
 ***************************************************************************
     names  values   units     names  values   units     names  values   units
     -----  ------   -----     -----  ------   -----     -----  ------   -----

   1*** geometry parameters ***
       ld=   0.    meters      lmlt=   1.00                wd=   0.    meters 
     wmlt=   1.00                xl=   0.    meters        xw=   0.    meters 
     lref=   0.    meters      wref=   0.    meters      lref=   0.    meters 
     wref=   0.    meters     xlref=   0.    meters     xwref=   0.    meters 
     lmin=   0.    meters      wmin=   0.    meters      lmax=   0.    meters 
     wmax=   0.    meters 

   2*** threshold voltage parameters ***
      vto= 830.00m volts        nss=   0.    1/cm**2      tpg=   1.00         
      phi= 579.84m volts      gamma=   6.07  v**0.5      bulk=  gnd           
    ngate=   0.    cm**3       nsub= 1.0e+15 1/cm**3   delvto=   0.    volts  

   3*** gate overlap capacitance parameters ***
     cgbo=   0.    f/meter     cgdo=   0.    f/meter     cgso=   0.    f/meter
     meto=   0.    meters 

   4*** gate capacitance parameters ***
    capop=   2.00               cf1=   0.    volts        cf2= 100.00m volts  
      cf3=   1.00  volts        cf4=  50.00               cf5= 666.67m        
      cf6= 500.00               xqc= 500.00m              tox=   1.15u meters 
      cox=  30.00u f/m**2 

   5*** diffusion parasitic parameters ***
      acm=   0.                  is=  10.00f amps          js=   0.    a/m**2 
      jsw=   0.    amp/m        nds=   1.00               cbd=   0.    farad  
      cbs=   0.    farad         cj=  40.00f f/m**2      cjsw=   0.    f/m    
   cjgate=   0.    f/m           mj= 500.00m             mjsw= 330.00m        
       pb= 800.00m volts        php= 800.00m volts         tt=   0.    secs   
     hdif=   0.    meters      ldif=   0.    meters        rd=   0.    ohms   
       rs=   0.    ohms         rsh=   0.    ohms/sq       fc=   0.           
    alpha=   0.                 vcr=   0.    volts      iirat=   0.           
      rdc=   0.    ohms         rsc=   0.    ohms           n=   1.00         
     vnds=  -1.00  volts  

   6*** temperature effect parameters ***
     tlev=   0.               tlevc=   0.                  eg=   1.11  ev     
     gap1= 702.00u ev/deg      gap2=   1.11k deg          xti=   0.           
      bex=  -1.50               tcv=   0.    v/deg k      trd=   0.    /deg   
      trs=   0.    /deg         cta=   0.    /deg         ctp=   0.    /deg   

   7*** noise parameters ***
       kf=   0.                  af=   1.00              nlev=   2.00         
   gdsnoi=   1.00         

   ***  level  2  model parameters  ***

    delta=   0.               ecrit=   0.    v/m       lambda=  50.00m /v     
      nfs=   0.    1/cm**2    ucrit=  10.00k v/cm        uexp=   0.           
     utra=   0.                  uo=   1.50kcm**2/vs       xj=   0.    meters 
     neff=   1.00              vmax=   0.     m/sec        kp=   4.50u a/v**2 
      mob=-1.2e-29            deriv=   0.           
1****** HSPICE -- D-2010.03-SP1 32-BIT (May 26 2010) winnt ******               
 ******  
 * non-inverting buffer

  ******  circuit element summary tnom=  25.000 temp=  25.000 *****


 **** resistors

  
 
                                                
 element name        0:rin     0:r2      0:r3   
 node1               0:101     0:104     0:116  
 node2               0:102     0:115     0:117  
 model                                          
 res eff            10.0000   25.0000   35.0000 
 tc1                 0.        0.        0.     
 tc2                 0.        0.        0.     
 scale               1.0000    1.0000    1.0000 
 m                   1.0000    1.0000    1.0000 
 ac                 10.0000   25.0000   35.0000 
 temp               25.0000   25.0000   25.0000 
 l                   0.        0.        0.     
 w                   0.        0.        0.     
 cap                 0.        0.        0.     
 noise            1.000e+00 1.000e+00 1.000e+00 


 **** capacitors
  
 
                                                   
 element name        0:c1       0:c2       0:c3    
 node1               0:104      0:116      0:118   
 node2               0:0        0:0        0:0     
 model                                             
 cap eff           100.0000f  500.0000f    1.0000p 
 tc1                 0.         0.         0.      
 tc2                 0.         0.         0.      
 scale               1.0000     1.0000     1.0000  
 ic                  0.         0.         0.      
 m                   1.0000     1.0000     1.0000  
 w                   0.         0.         0.      
 l                   0.         0.         0.      
 temp               25.0000    25.0000    25.0000  


 **** inductors
  
 
                                        
 element name        0:l1       0:l2    
 node1               0:115      0:117   
 node2               0:116      0:118   
 model                                  
 ind eff           500.0000f  500.0000f 
 res eff             0.         0.      
 tc1                 0.         0.      
 tc2                 0.         0.      
 nt                  1.0000     1.0000  
 ic                  0.         0.      
 m                   1.0000     1.0000  


 **** independent sources

     name         node1        node2      dc volt    ac mag    ac phase    type
  vdd  103               0                    3.0000     0.         0.      dc   
  vin  101               0                    1.5000     1.0000    90.0000  dc   


 **** mosfets
  
 
                                                              
 element name        0:m1       0:m2       0:m3       0:m4    
 drain               0:107      0:107      0:104      0:104   
 gate                0:102      0:102      0:107      0:107   
 source              0:103      0:0        0:103      0:0     
 bulk                0:103      0:0        0:103      0:0     
 model               0:modp     0:modn     0:modp     0:modn  
 w eff              30.0000u   10.0000u   60.0000u   20.0000u 
 l eff             350.0000n  350.0000n  350.0000n  350.0000n 
 rd eff              0.         0.         0.         0.      
 rs eff              0.         0.         0.         0.      
 cdsat              10.0000f   10.0000f   10.0000f   10.0000f 
 cssat              10.0000f   10.0000f   10.0000f   10.0000f 
 capbd               0.         0.         0.         0.      
 capbs               0.         0.         0.         0.      
 temp               25.0000    25.0000    25.0000    25.0000  
 aic                                                          
  
 
1****** HSPICE -- D-2010.03-SP1 32-BIT (May 26 2010) winnt ******               
 ******  
 * non-inverting buffer

  ******  element node table
                                                                                      
 0                c1               c2               c3               vdd              
                  vin              m2:s             m2:b             m4:s             
                  m4:b                                                                
 101              rin              vin                                                
 102              rin              m1:g             m2:g                              
 103              vdd              m1:s             m1:b             m3:s             
                  m3:b                                                                
 104              r2               c1               m3:d             m4:d             
 107              m1:d             m2:d             m3:g             m4:g             
 115              r2               l1                                                 
 116              r3               c2               l1                                
 117              r3               l2                                                 
 118              c3               l2                                                 
 **info** set option symb=1 internally to help for convergence.
 *****************************************************************
 ******  option summary
 ******
 runlvl  = 3         bypass  = 2         

 **info** rebuilding matrix with pivot option

1****** HSPICE -- D-2010.03-SP1 32-BIT (May 26 2010) winnt ******               
 ******  
 * non-inverting buffer

  ******  operating point information tnom=  25.000 temp=  25.000 *****
 ***** operating point status is all       simulation time is     0.     
    node    =voltage      node    =voltage      node    =voltage

 +0:101     =   1.5000  0:102     =   1.5000  0:103     =   3.0000 
 +0:104     =  19.7865n 0:107     =   2.9099  0:115     =  19.7865n
 +0:116     =  19.7865n 0:117     =  19.7865n 0:118     =  19.7865n


 ****  voltage sources

 subckt                        
 element  0:vdd      0:vin     
  volts      3.0000     1.5000 
  current   -3.4995u    0.     
  power     10.4984u    0.     

     total voltage source power dissipation=   10.4984u       watts



 **** resistors

 subckt                                   
 element  0:rin      0:r2       0:r3      
  r value   10.0000    25.0000    35.0000 
  v drop  -222.0446a    0.         0.     
  current  -22.2045a    0.         0.     
  power      0.         0.         0.     



 **** mosfets


 subckt                                              
 element  0:m1       0:m2       0:m3       0:m4      
 model    0:modp     0:modn     0:modp     0:modn    
 region       Linear   Saturati     Cutoff     Linear
  id        -3.4995u    3.4995u    0.         6.0300p
  ibs        0.         0.         0.         0.     
  ibd      900.8878a  -29.0991f   30.0000f -1.979e-22
  vgs       -1.5000     1.5000   -90.0888m    2.9099 
  vds      -90.0888m    2.9099    -3.0000    19.7865n
  vbs        0.         0.         0.         0.     
  vth     -750.0000m  830.0000m -750.0000m  830.0000m
  vdsat   -157.9643m  140.4070m    0.       472.9726m
  vod     -750.0000m  670.0000m  659.9112m    2.0799 
  beta      73.3297u   75.4762u  257.1429u  146.5222u
  gam eff    6.0732     6.0732     6.0732     6.0732 
  gm         6.6062u   10.5974u    0.         2.8992p
  gds       23.0339u   35.2940n    0.       304.7531u
  gmb       25.3935u   39.9716u    0.        11.5613p
  cdtot    150.5772a  4.074e-19  7.413e-20  105.0005a
  cgtot    321.1143a   72.8410a  528.0529a  211.6001a
  cstot    163.9956a   70.0004a   12.3546a  105.0005a
  cbtot      6.5415a    2.4333a  515.6241a    1.5991a
  cgs      163.9956a   70.0004a   12.3546a  105.0005a
  cgd      150.5772a  4.074e-19  7.413e-20  105.0005a



 ******  
 * non-inverting buffer

  ******  ac analysis tnom=  25.000 temp=  25.000 *****
x

        freq    current 1    current 2    current 3    current 4  
                    m1           m1           m1           m1     
    1.00000k     10.5711u      2.7232p     10.5711u     41.7722f  
    1.25893k     10.5711u      3.4283p     10.5711u     52.2779f  
    1.58489k     10.5711u      4.3159p     10.5711u     65.5665f  
    1.99526k     10.5711u      5.4334p     10.5711u     82.3460f  
    2.51189k     10.5711u      6.8403p     10.5711u    103.5105f  
    3.16228k     10.5711u      8.6114p     10.5711u    130.1871f  
    3.98107k     10.5711u     10.8411p     10.5711u    163.7966f  
    5.01187k     10.5711u     13.6482p     10.5711u    206.1288f  
    6.30957k     10.5711u     17.1820p     10.5711u    259.4381f  
    7.94328k     10.5711u     21.6309p     10.5711u    326.5635f  
   10.00000k     10.5711u     27.2317p     10.5711u    411.0794f  
   12.58925k     10.5711u     34.2826p     10.5711u    517.4869f  
   15.84893k     10.5711u     43.1593p     10.5711u    651.4525f  
   19.95262k     10.5711u     54.3343p     10.5711u    820.1103f  
   25.11886k     10.5711u     68.4028p     10.5711u      1.0324p  
   31.62278k     10.5711u     86.1141p     10.5711u      1.2998p  
   39.81072k     10.5711u    108.4112p     10.5711u      1.6363p  
   50.11872k     10.5711u    136.4816p     10.5711u      2.0600p  
   63.09573k     10.5711u    171.8201p     10.5711u      2.5933p  
   79.43282k     10.5711u    216.3087p     10.5711u      3.2648p  
  100.00000k     10.5711u    272.3166p     10.5711u      4.1101p  
  125.89254k     10.5711u    342.8262p     10.5711u      5.1743p  
  158.48932k     10.5711u    431.5927p     10.5711u      6.5141p  
  199.52623k     10.5711u    543.3430p     10.5711u      8.2008p  
  251.18864k     10.5711u    684.0283p     10.5711u     10.3242p  
  316.22777k     10.5711u    861.1405p     10.5711u     12.9973p  
  398.10717k     10.5711u      1.0841n     10.5711u     16.3627p  
  501.18723k     10.5711u      1.3648n     10.5711u     20.5994p  
  630.95734k     10.5711u      1.7182n     10.5711u     25.9331p  
  794.32823k     10.5711u      2.1631n     10.5711u     32.6478p  
    1.00000x     10.5711u      2.7232n     10.5711u     41.1012p  
    1.25893x     10.5711u      3.4283n     10.5711u     51.7433p  
    1.58489x     10.5711u      4.3159n     10.5711u     65.1410p  
    1.99526x     10.5711u      5.4334n     10.5711u     82.0076p  
    2.51189x     10.5711u      6.8403n     10.5711u    103.2415p  
    3.16228x     10.5711u      8.6114n     10.5711u    129.9734p  
    3.98107x     10.5711u     10.8411n     10.5711u    163.6268p  
    5.01187x     10.5710u     13.6482n     10.5711u    205.9939p  
    6.30957x     10.5710u     17.1820n     10.5711u    259.3309p  
    7.94328x     10.5710u     21.6309n     10.5711u    326.4783p  
   10.00000x     10.5710u     27.2316n     10.5711u    411.0118p  
   12.58925x     10.5710u     34.2825n     10.5711u    517.4332p  
   15.84893x     10.5709u     43.1591n     10.5712u    651.4098p  
   19.95262x     10.5709u     54.3340n     10.5713u    820.0764p  
   25.11886x     10.5708u     68.4021n     10.5714u      1.0324n  
   31.62278x     10.5706u     86.1127n     10.5716u      1.2997n  
   39.81072x     10.5703u    108.4085n     10.5719u      1.6363n  
   50.11872x     10.5699u    136.4762n     10.5724u      2.0599n  
   63.09573x     10.5692u    171.8094n     10.5732u      2.5933n  
   79.43282x     10.5681u    216.2873n     10.5745u      3.2648n  
  100.00000x     10.5664u    272.2737n     10.5765u      4.1101n  
  125.89254x     10.5637u    342.7408n     10.5797u      5.1743n  
  158.48932x     10.5594u    431.4222n     10.5847u      6.5141n  
  199.52623x     10.5526u    543.0032n     10.5927u      8.2008n  
