 ****** HSPICE -- D-2010.03-SP1 32-BIT (May 26 2010) winnt ******               
  Copyright (C) 2010 Synopsys, Inc. All Rights Reserved.                        
  Unpublished-rights reserved under US copyright laws.
  This program is protected by law and is subject to the 
  terms and conditions of the license agreement from Synopsys.
  Use of this program is your acceptance to be bound by the 
  license agreement. HSPICE is the trademark of Synopsys, Inc.
  Input File: d:\synopsys\hspice\trytry\rc_v4.sp                                
  lic:  
  lic: FLEXlm: v8.5b 
  lic: USER:   zrc                  HOSTNAME: LAPTOP-O4SR7NUK 
  lic: HOSTID: "005056c00001 00ffd46088fe a87eea1f533c 005056c00008 a87eea1f5338
  
  lic: Using FLEXlm license file: 
  lic: C:\flexlm\hspice.dat 
  lic: Checkout 1 hspice 
  lic: License/Maintenance for hspice will expire on 31-dec-2020/2007.9 
  lic: NODE LOCKED license on hostid "005056c00001 00ffd46088fe a87eea1f533c 005
 0
  lic:   
 Init: read install configuration file: D:\synopsys\Hspice_D-2010.03-SP1\meta.cfg
 scientific notation:
 a=10**-18  f=10**-15  p=10**-12  n=10**-9  u=10**-6
 m=10**-3   k=10**3    x=10**6    g=10**9 


 circuit parameter definitions
  parameter          =  value 





 constants  - tnom         kt           vt           gapsi        ni
            298.15000    4.1163e-21    25.69184m     1.11562    1.2565e+16 
1****** HSPICE -- D-2010.03-SP1 32-BIT (May 26 2010) winnt ******               
 ******  
 * rc

  ******  circuit element summary tnom=  25.000 temp=  25.000 *****


 **** resistors

  
 
                                                 
 element name        0:r1      0:r2      0:r3    
 node1               0:1       0:2       0:3     
 node2               0:2       0:3       0:4     
 model                                           
 res eff            10.0000   20.0000    1.0000k 
 tc1                 0.        0.        0.      
 tc2                 0.        0.        0.      
 scale               1.0000    1.0000    1.0000  
 m                   1.0000    1.0000    1.0000  
 ac                 10.0000   20.0000    1.0000k 
 temp               25.0000   25.0000   25.0000  
 l                   0.        0.        0.      
 w                   0.        0.        0.      
 cap                 0.        0.        0.      
 noise            1.000e+00 1.000e+00 1.000e+00  


 **** capacitors
  
 
                                                   
 element name        0:c1       0:c2       0:c3    
 node1               0:2        0:3        0:5     
 node2               0:0        0:0        0:0     
 model                                             
 cap eff             4.0000u   70.0000n    5.0000p 
 tc1                 0.         0.         0.      
 tc2                 0.         0.         0.      
 scale               1.0000     1.0000     1.0000  
 ic                  0.         0.         0.      
 m                   1.0000     1.0000     1.0000  
 w                   0.         0.         0.      
 l                   0.         0.         0.      
 temp               25.0000    25.0000    25.0000  


 **** inductors
  
 
                             
 element name        0:l1    
 node1               0:4     
 node2               0:5     
 model                       
 ind eff           800.0000u 
 res eff             0.      
 tc1                 0.      
 tc2                 0.      
 nt                  1.0000  
 ic                  0.      
 m                   1.0000  


 **** independent sources

     name         node1        node2      dc volt    ac mag    ac phase    type
  vin  1                 0                    0.         1.0000     0.      dc   
 
1****** HSPICE -- D-2010.03-SP1 32-BIT (May 26 2010) winnt ******               
 ******  
 * rc

  ******  element node table
                                                                                      
 0                c1               c2               c3               vin              
 1                r1               vin                                                
 2                r1               r2               c1                                
 3                r2               r3               c2                                
 4                r3               l1                                                 
 5                c3               l1                                                 
 *****************************************************************
 ******  option summary
 ******
 runlvl  = 3         bypass  = 2         
1****** HSPICE -- D-2010.03-SP1 32-BIT (May 26 2010) winnt ******               
 ******  
 * rc

  ******  operating point information tnom=  25.000 temp=  25.000 *****
 ***** operating point status is all       simulation time is     0.     
    node    =voltage      node    =voltage      node    =voltage

 +0:1       =   0.      0:2       =   0.      0:3       =   0.     
 +0:4       =   0.      0:5       =   0.     


 ****  voltage sources

 subckt             
 element  0:vin     
  volts      0.     
  current    0.     
  power      0.     

     total voltage source power dissipation=    0.            watts



 **** resistors

 subckt                                   
 element  0:r1       0:r2       0:r3      
  r value   10.0000    20.0000     1.0000k
  v drop     0.         0.         0.     
  current    0.         0.         0.     
  power      0.         0.         0.     

 ***************************************************
   ******   pole/zero analysis  
 
 
    input =  0:vin          output = v(4)
 
       poles (rad/sec)                 poles ( hertz)
 real            imag            real            imag            
 -24.5550k       0.              -3.90804k       0.              
 -625.026k       -15.7996x       -99.4759k       -2.51458x       
 -625.026k       15.7996x        -99.4759k       2.51458x        
 -727.180k       0.              -115.734k       0.              
 
       zeros (rad/sec)                 zeros ( hertz)
 real            imag            real            imag            
 0.              15.8114x        0.              2.51646x        
 0.              -15.8114x       0.              -2.51646x       
 
  ***** constant factor = 8.92857g

          ***** job concluded
1****** HSPICE -- D-2010.03-SP1 32-BIT (May 26 2010) winnt ******               
 ******  
 * rc

  ******  job statistics summary tnom=  25.000 temp=  25.000 *****

  ******  HSPICE Threads Information  ******

  Command Line Threads Count                  :     1
  Available CPU Count                         :    12
  Actual Model Evaluation(Load) Threads Count :     1
  Actual Solver Threads Count                 :     1


  ******  Circuit Statistics  ******
  # nodes       =       6 # elements   =       8
  # resistors   =       3 # capacitors =       3 # inductors   =       1
  # mutual_inds =       0 # vccs       =       0 # vcvs        =       0
  # cccs        =       0 # ccvs       =       0 # volt_srcs   =       1
  # curr_srcs   =       0 # diodes     =       0 # bjts        =       0
  # jfets       =       0 # mosfets    =       0 # U elements  =       0
  # T elements  =       0 # W elements =       0 # B elements  =       0
  # S elements  =       0 # P elements =       0 # va device   =       0


  ******  Runtime Statistics (seconds)  ******

  analysis           time    # points   tot. iter  conv.iter
  op point           0.04           1           3
  readin             0.58
  errchk             0.10
  setup              0.18
  output             0.00


           total memory used           28  kbytes
           total cpu time            1.01 seconds
           total elapsed time        1.66 seconds
           job started at     05:47:18 05/22/2012
           job ended   at     05:47:20 05/22/2012


  lic: Release hspice token(s) 
